!Agilent Technologies,E8364C,MY43040239,A.09.42.22
!Agilent E8364C: A.09.42.22
!Date: Sunday, September 14, 2025 22:24:03
!Correction: S11(Full 2 Port(1,2)) 
!S21(Full 2 Port(1,2)) 
!S12(Full 2 Port(1,2)) 
!S22(Full 2 Port(1,2)) 
!S2P File: Measurements: S11, S21, S12, S22:
# Hz S  RI   R 50
10000000 0.068157621 -0.0028358749 -0.0046083648 0.0011705271 -0.009470785 0.0051133456 0.17687136 -0.018092606
259950000 0.063078612 0.0047147307 0.01236507 0.011775987 0.00014573193 -0.00098528818 0.013963206 -0.088718668
509900000 0.065439098 0.0085067498 0.00019082746 0.00032205982 -0.00056153757 6.7508889e-005 -0.055495333 0.018840604
759850000 0.069432251 0.011916601 0.0013870706 6.1210376e-005 -0.00051774754 0.00026026517 -0.030587794 0.0075993333
1009800000 0.071733743 0.013821827 0.00020944106 0.00048949738 7.1815804e-005 2.6408403e-005 -0.027548041 0.0058670295
1259750000 0.074510336 0.015422248 -8.0436861e-005 0.0010700262 -6.2037238e-005 0.00012717099 -0.027649518 0.0066234795
1509700000 0.077217624 0.015250333 -6.5487156e-006 0.00066837214 6.4122265e-005 0.0003430497 -0.026338443 0.0071025607
1759650000 0.079322182 0.016344801 0.00031853118 0.00061265909 -5.1565014e-005 -0.00027935629 -0.025469983 0.0078581246
2009600000 0.08268749 0.017351236 -2.7732855e-005 0.00087359501 -1.9673578e-005 8.539229e-005 -0.025470642 0.0094436249
2259550000 0.086428061 0.017962176 0.00058575429 0.0010418036 1.9166386e-005 -6.9506634e-005 -0.024415338 0.0099897124
2509500000 0.090560704 0.017228192 0.000789635 0.0010743253 -0.00017792404 9.3816227e-005 -0.023733735 0.010654974
2759450000 0.091869496 0.017453576 0.00020563054 0.0010800943 -0.00023657652 0.00040067162 -0.023604456 0.011978383
3009400000 0.095833197 0.016556052 0.00076446222 0.00063395995 0.00043178341 -1.3002413e-007 -0.022618301 0.011226352
3259350000 0.097786106 0.016844401 0.0002514162 0.00069522701 -0.00011952726 0.00025887555 -0.022357421 0.010815249
3509300000 0.10285312 0.014588164 0.00083365192 0.0015936436 -8.0414475e-006 -0.00018459615 -0.022874946 0.013608839
3759250000 0.10467262 0.012845678 0.001578677 0.0023135787 -0.00015697806 -0.00010968242 -0.023433955 0.015624593
4009200000 0.10855523 0.01169557 0.0013818772 0.0013168555 -0.00034881313 -0.00015769539 -0.021868432 0.017517868
4259150000 0.11386837 0.010067027 0.0014829714 0.0012533155 -0.00033360612 -0.00056114723 -0.020536171 0.018563747
4509100000 0.11618742 0.010063533 0.0014184921 0.0010423282 0.00010654043 0.00025239034 -0.018527946 0.01834405
4759050000 0.11912341 0.00727882 0.0011517988 0.0010029834 -0.0002358007 -0.00028584586 -0.017992556 0.018407334
5009000000 0.12442493 0.0044919923 0.0016602499 0.0014825527 -0.00046603222 2.277339e-006 -0.017322628 0.018593276
5258950000 0.12427842 0.0012433933 0.0017790472 0.001492599 -0.00013190908 0.00015820445 -0.016271362 0.018700516
5508900000 0.13030474 -0.0010542511 0.0017464049 0.0012020185 4.6409914e-005 -7.2898154e-005 -0.015284476 0.019192986
5758850000 0.1309188 -0.0051384573 0.0018808928 0.0015904788 0.00071280159 0.00027986334 -0.013380482 0.020204384
6008800000 0.13487135 -0.0075925253 0.0020337119 0.00081586413 0.00027154307 5.7980811e-005 -0.013523189 0.021304507
6258750000 0.1386501 -0.010949893 0.0021734387 0.0014079589 -5.4931541e-005 0.00015586878 -0.012614015 0.022258531
6508700000 0.14316624 -0.015210898 0.0027372639 0.00092084298 0.00011188535 -0.00021199284 -0.011124805 0.021908302
6758650000 0.14577445 -0.017133955 0.0018249702 0.00091255497 -0.00019596863 -6.5187742e-005 -0.010349509 0.022113584
7008600000 0.14894785 -0.023599558 0.0026787466 0.0010017183 5.1454637e-005 0.00030606153 -0.009799513 0.021885941
7258550000 0.15112314 -0.022589967 0.0031526405 0.001129447 -0.0002146998 0.0001583929 -0.0073519135 0.022539195
7508500000 0.15264721 -0.032091442 0.0029194069 0.0010185099 0.00050147594 -0.00026554582 -0.0072306134 0.02308278
7758450000 0.1524225 -0.035465334 0.0029564225 0.00072922499 0.00025123832 -9.4464624e-005 -0.006270587 0.02250997
8008400000 0.1592401 -0.043936253 0.0033031409 0.0011711746 -0.00064187776 -0.00030315132 -0.0049395519 0.024523484
8258350000 0.15883929 -0.043157019 0.003637118 0.0011952467 0.00026844203 0.00016131523 -0.004284496 0.023611438
8508300000 0.1637546 -0.053934224 0.0043554306 0.00068846572 0.00011896315 6.7394998e-005 -0.0025824872 0.025252391
8758250000 0.16341405 -0.055515878 0.003904128 0.00042905298 6.3573592e-005 1.8300886e-006 -0.0019534961 0.02506591
9008200000 0.16723159 -0.062790051 0.0039706193 0.00018163095 -0.00019382626 0.00026326644 -0.0014297649 0.024992924
9258150000 0.16341402 -0.066338427 0.0036680633 0.00031866884 0.00015535798 0.00041723609 -0.00034657045 0.023219533
9508100000 0.1687157 -0.07415019 0.0042043654 -0.00035729932 -0.00026499154 -1.4933536e-006 0.0017097101 0.023496507
9758050000 0.16341732 -0.076837108 0.00398377 -0.00037741472 0.00010049834 -7.3739284e-006 0.0045746192 0.023776159
10008000000 0.16595104 -0.085096657 0.0041501378 -0.00017029775 7.1293543e-005 -0.00032409275 0.005432677 0.024660636
10257950000 0.16855927 -0.091078959 0.003750816 -0.00096340833 4.0658488e-005 -0.00012259142 0.0062468066 0.024145219
10507900000 0.1653941 -0.09918163 0.005063117 -0.00074551057 0.00058170262 -0.00027793212 0.0065854136 0.02449856
10757850000 0.16717939 -0.10169543 0.0049207844 -0.0013610317 0.00014268237 0.00031149064 0.0081233904 0.025458217
11007800000 0.16362111 -0.11168539 0.0050772093 -0.0009301242 -8.2913561e-005 -0.00018180071 0.0097570233 0.0246929
11257750000 0.16660853 -0.11273018 0.0050270772 -0.00098115276 -0.00024172418 0.00024102181 0.010339194 0.024383163
11507700000 0.16088821 -0.12105391 0.0048734853 -0.0020402884 -0.00022876621 -0.00027679201 0.012165067 0.023659658
11757650000 0.16248035 -0.12224618 0.0047390447 -0.0015739449 0.00015142045 -9.0915499e-005 0.014247796 0.024486048
12007600000 0.15752098 -0.12922519 0.0053692809 -0.0023012301 -0.00022767778 -0.00041757047 0.016235406 0.023875885
12257550000 0.15743504 -0.13533595 0.0053966772 -0.0024981536 -0.00040730493 -0.00027444621 0.018003829 0.024210365
12507500000 0.15014008 -0.14186589 0.0050465302 -0.002885273 0.0001589499 -0.00030727708 0.019215988 0.024923168
12757450000 0.15379408 -0.1488186 0.0051875631 -0.002903447 0.00045064892 -0.00023730085 0.019588279 0.02429221
13007400000 0.14837292 -0.15185636 0.0050248438 -0.0038469888 0.00013958845 -0.0002648471 0.020198323 0.024005545
13257350000 0.14967731 -0.15660621 0.0053800228 -0.0038243998 -0.00011152158 0.0001217884 0.020013144 0.022945249
13507300000 0.14095442 -0.15907626 0.005052262 -0.0045254608 -0.00050511357 -0.00013376838 0.022364143 0.021662379
13757250000 0.14009543 -0.16328208 0.0044508968 -0.0051771291 -8.2749837e-005 -0.00038738502 0.024921151 0.01975283
14007200000 0.12967475 -0.16756137 0.0041848449 -0.0050550839 -0.00069863588 -0.00037024391 0.026972847 0.020687573
14257150000 0.13010435 -0.17387936 0.0046102111 -0.00484154 -0.00038020467 0.00046425071 0.027940543 0.019177893
14507100000 0.12375007 -0.17628896 0.0044202399 -0.0052804309 -0.00059622794 -7.2882235e-006 0.031070957 0.022056768
14757050000 0.12549347 -0.18269221 0.0045774141 -0.0056351027 0.00010895339 0.00032763623 0.031504355 0.021536322
15007000000 0.11774488 -0.18479335 0.0042192778 -0.0057086525 -0.00016709417 -0.00055619323 0.0312992 0.020032251
15256950000 0.1174261 -0.1880144 0.0037042759 -0.0058494997 -0.0001134979 -0.00030375415 0.03250454 0.020167924
15506900000 0.11276585 -0.19030933 0.0040340261 -0.0068570343 0.00030342676 -0.00051815092 0.033637021 0.018435968
15756850000 0.11036565 -0.18758069 0.0033372573 -0.0071354592 -0.00036166349 -0.00037001129 0.035461068 0.015754974
16006800000 0.10197987 -0.19178796 0.0026851567 -0.0073896488 0.00019616366 0.00022606846 0.039838038 0.01466231
16256750000 0.093582347 -0.19129454 0.0027894147 -0.0074762632 -0.00025721051 2.3412151e-005 0.042810939 0.014597424
16506700000 0.089828871 -0.19966459 0.0035297065 -0.0084583843 -0.00051681511 0.00057971542 0.042954933 0.017786454
16756650000 0.088832483 -0.19902843 0.0025583722 -0.0087663028 7.3868592e-005 0.0001340345 0.04441338 0.017411975
17006600000 0.084401824 -0.20242606 0.0021616733 -0.009305642 -0.00049361325 0.00038231825 0.044162981 0.019378275
17256550000 0.079398811 -0.20119242 0.0019736006 -0.0092694517 -0.00048297035 2.3956352e-005 0.043498751 0.014801029
17506500000 0.078255273 -0.20131074 0.001833125 -0.009729716 -0.00015403799 4.8748694e-005 0.043907162 0.014428054
17756450000 0.073095798 -0.19793776 0.00072039926 -0.0098654861 -0.00039957711 -9.4337185e-005 0.045216344 0.00962942
18006400000 0.066805109 -0.20156775 0.0010053802 -0.010306619 2.8235372e-005 0.00011610069 0.04771452 0.0066373604
18256350000 0.0615227 -0.19669816 -0.00056636904 -0.0098730959 2.0329617e-005 -0.00010411199 0.053480241 0.0051997337
18506300000 0.057104226 -0.20062962 -0.00018785932 -0.0097309025 -0.00026402468 -0.00040531444 0.055240501 0.0079461429
18756250000 0.053344112 -0.19889189 -0.00077958743 -0.010353259 -0.00035559133 0.00027390273 0.058301069 0.0089214323
19006200000 0.050607581 -0.20453213 -0.0012670726 -0.011028674 -0.00022771362 -0.00024834511 0.05640804 0.010243913
19256150000 0.049941596 -0.20149039 -0.001423243 -0.011137282 -0.00025313476 -0.00046344244 0.056146592 0.0088838097
19506100000 0.048809223 -0.19862217 -0.0024171523 -0.010559648 -0.00046267215 9.9127501e-005 0.053229667 0.0060283463
19756050000 0.048703887 -0.19453286 -0.0030469443 -0.010334701 -0.00062832807 0.00049395848 0.058407705 0.0021410929
20006000000 0.042359285 -0.19155993 -0.0031149355 -0.0095594404 -0.001170489 0.00089016306 0.057399578 -0.0034190426
20255950000 0.035496775 -0.19728121 -0.004638874 -0.0097131943 -0.00011064074 8.2900806e-005 0.063305251 -0.0037391763
20505900000 0.0335625 -0.19034715 -0.0053921868 -0.011501349 0.00043856187 0.00037669661 0.070143096 -0.0047169561
20755850000 0.031700522 -0.1898662 -0.0051558618 -0.011137029 0.0005888454 0.00016141414 0.069918297 -0.0015612385
21005800000 0.026149765 -0.18944083 -0.0046746894 -0.010995066 -0.0011876721 -0.0013296007 0.072098605 0.00041240323
21255750000 0.026997687 -0.19587557 -0.0063823299 -0.010277793 -0.0010680788 0.001097088 0.067748696 0.0025759025
21505700000 0.021866973 -0.18620771 -0.0068241921 -0.010517806 9.1552771e-005 0.0020300185 0.063914865 0.002786323
21755650000 0.025795173 -0.18895939 -0.0096977949 -0.012602581 -0.00080584676 0.00030857517 0.061669976 -0.0032437658
22005600000 0.026566373 -0.18017611 -0.0095532108 -0.012588941 0.00096211926 0.00033683935 0.065515324 -0.013462108
22255550000 0.021347109 -0.17584255 -0.0094513111 -0.011210262 0.0015003257 0.00020264339 0.070543297 -0.013919601
22505500000 0.02052539 -0.16959161 -0.010320503 -0.01002788 -0.00074012799 -0.00074635603 0.078064412 -0.014036417
22755450000 0.013154992 -0.17216957 -0.0088947741 -0.0085092783 0.00013673728 -0.00059538044 0.082557976 -0.014809613
23005400000 0.01232709 -0.17390774 -0.0096045798 -0.010133092 0.001359196 0.00039878764 0.081728607 -0.00910802
23255350000 0.013866626 -0.17343765 -0.012413475 -0.0089434534 0.00044976085 0.00029988636 0.082442842 -0.007651899
23505300000 0.01511769 -0.17450212 -0.012009033 -0.0082643442 0.00041326799 0.0013865693 0.079075605 -0.0085280426
23755250000 0.02001014 -0.1684972 -0.015930319 -0.0084719136 0.00042906264 0.00103432 0.07849142 -0.018139636
24005200000 0.020294741 -0.16337739 -0.014461203 -0.0047824513 -0.00086008757 0.0011191136 0.076616421 -0.022320468
24255150000 0.021309661 -0.15729368 -0.014821206 -0.0064976667 -0.00028049923 0.00013924242 0.078940742 -0.0353343
24505100000 0.016921373 -0.15270591 -0.016070282 -0.0068539963 0.00049269531 -7.6438308e-005 0.087891154 -0.032960959
24755050000 0.017391881 -0.15065658 -0.016374109 -0.0044327523 0.00012510628 0.0016611138 0.095360614 -0.034161445
25005000000 0.010091099 -0.14867654 -0.016526474 -0.0046839849 -0.00078918179 -0.00062908517 0.10213769 -0.024696037
25254950000 0.015471143 -0.15047511 -0.015397338 -0.00409101 0.0011201962 -9.1536276e-005 0.097742364 -0.019506376
25504900000 0.016363868 -0.15352328 -0.016472405 -0.0027289672 0.0018104999 0.0013016389 0.093812495 -0.018865425
25754850000 0.022970093 -0.15459028 -0.017837815 -0.0012660964 -0.00040684943 0.00043487921 0.083540574 -0.022919038
26004800000 0.030977238 -0.14739817 -0.017614305 -0.0010876799 0.00071894133 0.00023962742 0.07841751 -0.033615202
26254750000 0.032959681 -0.13911851 -0.016779546 -0.0001305966 0.0007931104 -0.00043848497 0.081454471 -0.042515691
26504700000 0.033042341 -0.13028292 -0.020389276 -0.0011592646 -3.5000372e-005 0.0011121263 0.086557098 -0.051351205
26754650000 0.029304715 -0.13061735 -0.019407112 0.0024599803 -0.00027333017 0.00010730854 0.098518237 -0.056103583
27004600000 0.025717709 -0.13000378 -0.018703952 0.0035138517 0.00027854202 -0.00033259505 0.11443058 -0.053869847
27254550000 0.024398491 -0.13538878 -0.018172486 0.0037307956 0.00059642381 0.00080628961 0.11489175 -0.039528597
27504500000 0.028142633 -0.13732921 -0.017627537 0.0058552222 -0.0010595694 -0.0011202756 0.11235458 -0.033422757
27754450000 0.036234844 -0.14073868 -0.017215427 0.0075239446 -0.00039300718 0.0011334836 0.097893216 -0.023397423
28004400000 0.042172644 -0.13910684 -0.016608484 0.0074809962 -0.00015299048 0.0016767659 0.082776614 -0.037462328
28254350000 0.046861351 -0.13518929 -0.020450158 0.009842081 0.00065303798 0.0001508978 0.077071227 -0.047657117
28504300000 0.05455989 -0.12890974 -0.019479739 0.010055698 0.00052468979 0.00056256104 0.082344301 -0.065157533
28754250000 0.05238954 -0.12251957 -0.01826226 0.012088024 0.0017117646 -0.00024836848 0.096671522 -0.075127862
29004200000 0.050109331 -0.12070322 -0.019001689 0.012598751 0.0005720653 9.1592752e-005 0.10694464 -0.083387755
29254150000 0.043985408 -0.12373777 -0.01881686 0.012519258 0.00010129656 0.00064491387 0.12412973 -0.072826341
29504100000 0.05155604 -0.1306988 -0.01878533 0.015430916 0.00066389394 -0.0015209032 0.12720132 -0.058000699
29754050000 0.054887075 -0.13656209 -0.016466882 0.018550599 -0.0012557145 0.0018178894 0.11446717 -0.04439339
30004000000 0.066177338 -0.13751471 -0.015265035 0.017769737 0.00059838989 0.0014231988 0.097882472 -0.043249656
30253950000 0.076951236 -0.13702118 -0.01496411 0.020167094 0.00050015794 8.4444167e-005 0.084598549 -0.052774705
30503900000 0.0835815 -0.13144439 -0.013654938 0.020738296 -0.0009557833 0.00013485897 0.0674631 -0.077713341
30753850000 0.089500211 -0.12496384 -0.013650825 0.022722492 0.00097900839 -0.00087837869 0.082793042 -0.095911771
31003800000 0.084464319 -0.12285709 -0.010757898 0.0233905 0.00045037339 -0.00038547136 0.091964036 -0.1139565
31253750000 0.075462677 -0.12204294 -0.011561854 0.02376122 0.00074321235 0.00046429673 0.12162431 -0.11726856
31503700000 0.074222885 -0.12721197 -0.0088419113 0.023943072 0.0016519926 -0.001435962 0.13066442 -0.10483792
31753650000 0.07529854 -0.13745078 -0.0070192455 0.024280434 0.00021793389 -0.00034844287 0.14570977 -0.086695008
32003600000 0.079812221 -0.1410459 -0.0077144001 0.024336727 -0.0011468173 0.00024049867 0.12856019 -0.073462047
32253550000 0.090878002 -0.14806215 -0.0052886335 0.026062548 -0.00050859677 -0.0010426181 0.11573257 -0.062811837
32503500000 0.098589808 -0.14890568 -0.005136101 0.026465135 0.0011318845 -0.001710895 0.092094004 -0.066796236
32753450000 0.10459386 -0.14085169 -0.00080173265 0.028431572 0.001018493 -0.0015871989 0.07999552 -0.081853934
33003400000 0.10477054 -0.1377892 0.0010788188 0.027879946 0.00038315568 -0.00067398697 0.078312278 -0.10626321
33253350000 0.10080069 -0.13337833 0.00091345632 0.02557173 0.0012550482 0.0012669443 0.091985404 -0.12072295
33503300000 0.094483837 -0.14102721 0.0028309971 0.028465282 0.0011478667 -0.00015757933 0.10125509 -0.12980005
33753250000 0.093284503 -0.14904286 0.0046324013 0.027280249 0.0010500879 -0.0010446701 0.11699755 -0.12245241
34003200000 0.093633443 -0.15858488 0.0043872385 0.028764665 5.7904749e-006 0.00029962626 0.11697774 -0.11331755
34253150000 0.10420619 -0.16587034 0.007701199 0.025919657 0.00044543733 0.0014165165 0.11528704 -0.10495844
34503100000 0.11222196 -0.1729334 0.0084393919 0.028756058 0.00035531129 0.00014502922 0.099620722 -0.10541443
34753050000 0.12106312 -0.17143016 0.010474004 0.027125848 0.0014569164 -0.0011040343 0.095767416 -0.11315074
35003000000 0.12470125 -0.16754451 0.013093742 0.027597087 0.00013824907 -0.0021877498 0.090869479 -0.12415818
35252950000 0.12796223 -0.16079205 0.01531468 0.02593594 -0.0013798148 -0.0012399418 0.10113451 -0.13311693
35502900000 0.12047396 -0.15980202 0.017131872 0.025696652 0.00079294119 -0.0017560384 0.10526119 -0.13432854
35752850000 0.11559595 -0.16666715 0.018085053 0.025739793 0.00093627506 -0.00068672461 0.11560372 -0.13176104
36002800000 0.11081211 -0.17242844 0.01854896 0.025010018 -8.3014522e-005 -0.0012346444 0.11319877 -0.1197533
36252750000 0.10813222 -0.18039224 0.019382866 0.023468934 0.0006656677 -0.0010060574 0.098362155 -0.10957448
36502700000 0.1118871 -0.18854763 0.022732003 0.021630473 -0.00017094892 4.175532e-006 0.085443124 -0.11298505
36752650000 0.11702801 -0.1915715 0.023998652 0.021354722 0.0018536489 0.00023631875 0.065600969 -0.11965828
37002600000 0.12222782 -0.1905123 0.023902033 0.017297603 0.0006103834 -2.0139085e-005 0.063859098 -0.14674647
37252550000 0.12140007 -0.1847885 0.024617368 0.01712135 0.00051655999 8.0855324e-007 0.072504707 -0.17127906
37502500000 0.11976128 -0.18106019 0.027923156 0.016945306 0.00028873631 -0.00033042597 0.098889202 -0.18209456
37752450000 0.10916172 -0.17933752 0.029788418 0.016207336 3.13081e-005 -0.0012231034 0.11869913 -0.17494006
38002400000 0.10135709 -0.18328804 0.030478731 0.013323431 -0.00053556467 -0.0014187114 0.12690492 -0.15404941
38252350000 0.097044244 -0.19121826 0.029628208 0.0096601285 -0.0014007993 -0.0017785168 0.12366484 -0.13636616
38502300000 0.098394521 -0.19895419 0.030805152 0.0095806438 -0.00059344608 -0.00038057403 0.10455793 -0.11650185
38752250000 0.10599051 -0.20822661 0.033846285 0.0072028073 0.00098261028 6.0231352e-005 0.085563183 -0.11910853
39002200000 0.11104927 -0.20733383 0.035935592 0.0058610537 -2.7299573e-005 -0.0010715306 0.063381292 -0.12823929
39252150000 0.11112697 -0.20133512 0.031896718 0.00080151809 -0.0010470332 -0.00093898573 0.050505698 -0.15533076
39502100000 0.11432836 -0.1968593 0.032112356 0.0019527804 -0.00043833427 0.0012564186 0.060394712 -0.17817175
39752050000 0.1050291 -0.19233203 0.031816792 7.0811722e-005 0.0017892797 0.0012117918 0.072349854 -0.19806619
40002000000 0.10029589 -0.19030754 0.032511823 -0.00033631615 0.0013862973 -0.0010057164 0.097902939 -0.19731444
40251950000 0.093935914 -0.19286788 0.031917877 -0.0045911912 -0.00081223703 -0.0011337183 0.11070966 -0.18401168
40501900000 0.092210539 -0.20216449 0.034517922 -0.0068462561 -0.0018454308 -0.00013120164 0.11217443 -0.16786996
40751850000 0.096511662 -0.20582926 0.033057805 -0.0092225131 -0.00026859529 0.00079173892 0.097272009 -0.15270776
41001800000 0.10437525 -0.20762619 0.033608593 -0.0088139232 -0.0013858823 -0.00044904641 0.074028268 -0.15338714
41251750000 0.11097158 -0.19733648 0.032000221 -0.012449578 -0.00037676201 -0.00017967689 0.056559101 -0.16661477
41501700000 0.1153191 -0.18654367 0.033158701 -0.013640172 -0.0012854072 -0.00073973194 0.04932395 -0.18551242
41751650000 0.11004873 -0.17727117 0.032656807 -0.017102197 -0.0010283793 -7.5395568e-005 0.0513716 -0.20827444
42001600000 0.10431681 -0.17430589 0.03136177 -0.018555097 0.00028680908 -0.0018264101 0.072494291 -0.21600984
42251550000 0.091976747 -0.17115258 0.026142232 -0.0204287 -0.0014184359 0.00057964458 0.082439043 -0.2123044
42501500000 0.090347059 -0.17847225 0.026469691 -0.019150449 -0.00024718096 0.0010629821 0.096186504 -0.19513236
42751450000 0.081877127 -0.19038622 0.025660163 -0.021925015 -0.00030214048 -0.0012373494 0.08610028 -0.18601464
