!Agilent Technologies,E8364C,MY43040239,A.09.42.22
!Agilent E8364C: A.09.42.22
!Date: Sunday, September 14, 2025 22:24:53
!Correction: S11(Full 2 Port(1,2)) 
!S21(Full 2 Port(1,2)) 
!S12(Full 2 Port(1,2)) 
!S22(Full 2 Port(1,2)) 
!S2P File: Measurements: S11, S21, S12, S22:
# Hz S  RI   R 50
10000000 0.064282827 -0.0023487136 -0.13134469 0.0010708614 0.0072894571 0.0065905503 0.20903905 -0.015246871
259950000 0.063927077 0.0061771371 -0.12938544 0.0081056496 -0.00075531914 -0.0013907835 0.024599388 -0.11402418
509900000 0.065748289 0.008858257 -0.15226175 0.018202309 -8.1961138e-005 -0.00030997311 -0.056779705 0.023385443
759850000 0.069728009 0.0120411 -0.14940813 0.022973524 0.00025194886 -0.00058068795 -0.031321459 0.0084136296
1009800000 0.07147073 0.014773725 -0.14981271 0.031792574 -8.0196296e-005 0.00022726058 -0.028469644 0.0064507369
1259750000 0.075373963 0.01621668 -0.1479297 0.040965233 -0.00023204592 0.00038757539 -0.028432034 0.0062369956
1509700000 0.077454999 0.016658017 -0.14703375 0.049548954 0.00014105262 -0.00011589212 -0.027073929 0.0068351817
1759650000 0.081090823 0.01768901 -0.14357261 0.058520079 5.0649593e-005 0.00038334404 -0.026429914 0.0081614936
2009600000 0.083998896 0.018470768 -0.13858066 0.066099375 -0.00034014834 0.00012448724 -0.026085824 0.0094510913
2259550000 0.08728113 0.01882845 -0.13487318 0.074240237 0.00036500889 1.4824359e-005 -0.025833111 0.0097296899
2509500000 0.090528995 0.018353142 -0.13073575 0.081343435 0.00017886134 -0.00035535041 -0.02449418 0.010613687
2759450000 0.093636714 0.018536797 -0.12493874 0.088930406 7.8984078e-005 -0.00015110029 -0.023373591 0.011975789
3009400000 0.095974058 0.018840021 -0.11907296 0.097063564 0.00015426344 -0.0003096665 -0.024109337 0.011888752
3259350000 0.099763416 0.018311577 -0.1129483 0.10057131 0.0002727895 -0.00021833755 -0.023199746 0.011378403
3509300000 0.10256492 0.016885791 -0.10857476 0.11326355 0.00011614413 -4.2311833e-005 -0.023812883 0.013027417
3759250000 0.1088025 0.014313963 -0.096119061 0.11292903 -0.00034615252 -0.0004094312 -0.024801308 0.016873814
4009200000 0.10987111 0.015881399 -0.089726552 0.12148928 0.0004236495 4.8868056e-005 -0.022066405 0.016919114
4259150000 0.11266353 0.012034629 -0.088258035 0.1231558 0.00025359471 -8.1093924e-005 -0.020585364 0.019410251
4509100000 0.11653531 0.01226362 -0.079060309 0.12877022 -0.00042302336 0.00014953145 -0.01938788 0.01755967
4759050000 0.12063566 0.010046743 -0.071469143 0.13196249 -5.8884492e-005 -0.00013313802 -0.018278703 0.018320337
5009000000 0.12367328 0.007809639 -0.068316512 0.13548397 9.2015762e-005 0.00028326234 -0.017202187 0.018598856
5258950000 0.12810095 0.0072428947 -0.054690886 0.13834047 7.9506986e-005 -4.6152789e-005 -0.017200867 0.018922677
5508900000 0.12965728 0.0024827039 -0.051744949 0.1408129 -0.00018975014 -0.00020078772 -0.015472924 0.01945306
5758850000 0.13495401 0.00056862808 -0.03792008 0.14264594 6.0199407e-005 0.00014097794 -0.015014405 0.019789679
6008800000 0.1375453 -0.0041608512 -0.032169741 0.14508955 3.9611379e-005 2.4202291e-005 -0.013991085 0.021386126
6258750000 0.14042461 -0.0071770949 -0.02304193 0.14656982 0.00015711406 0.00024902308 -0.01292948 0.022090549
6508700000 0.14403121 -0.0097151045 -0.017350668 0.14903256 -8.4351905e-006 5.9134727e-005 -0.012426423 0.021728579
6758650000 0.14847802 -0.014310759 -0.0085814903 0.14520238 0.00012985665 -0.00025167831 -0.011086709 0.022570366
7008600000 0.15042955 -0.017045697 -0.0011934486 0.15077439 0.00039494652 -0.00020037251 -0.0096951229 0.021333199
7258550000 0.15483181 -0.021207003 0.0078628426 0.14395614 -8.9524838e-005 -8.7263161e-006 -0.0084476769 0.022838874
7508500000 0.15528163 -0.025030818 0.011743843 0.14919519 0.00026909946 0.00037826502 -0.007404245 0.022183722
7758450000 0.15757886 -0.028998982 0.022981275 0.14496443 -0.00026639493 -4.6517205e-005 -0.0075330259 0.022732884
8008400000 0.15987621 -0.03847608 0.026393821 0.14290671 -0.00015168609 -0.00026915414 -0.0061340444 0.023004988
8258350000 0.16428165 -0.039936531 0.038365502 0.13946068 -6.33815e-005 -0.00028721165 -0.0045860177 0.024233557
8508300000 0.16551414 -0.048309177 0.040720109 0.13922882 0.00018365904 -0.00020371159 -0.0036431151 0.024827395
8758250000 0.17053576 -0.051559627 0.05310921 0.13514729 6.9985239e-005 -3.3475804e-005 -0.002516333 0.024963686
9008200000 0.16940768 -0.057181358 0.054449093 0.13329466 0.00014432894 -0.0005816443 -0.0022130671 0.024414346
9258150000 0.17118376 -0.060657006 0.066273518 0.13153927 0.00017750643 0.0002063787 -0.00026419491 0.023811163
9508100000 0.17102124 -0.06976454 0.067468293 0.12833233 -0.00018749315 -5.1749721e-005 0.0016249021 0.023216184
9758050000 0.1717369 -0.070062622 0.07785935 0.1252511 3.8321346e-006 -0.00011980563 0.0041335933 0.02381409
10008000000 0.17147355 -0.080090694 0.081985272 0.12053054 0.00035250073 6.1491315e-005 0.0048280451 0.024646116
10257950000 0.17411962 -0.088929079 0.08754804 0.11486172 -0.00014589795 -3.4691107e-005 0.0064922068 0.02461623
10507900000 0.17222425 -0.09102907 0.094917491 0.11372367 0.0001198946 -0.00013717703 0.0064621991 0.023476435
10757850000 0.17426343 -0.099468626 0.099516332 0.10542109 0.00017818468 -0.00039975345 0.0085811755 0.025880763
11007800000 0.17069666 -0.10446953 0.10655702 0.1022283 0.00040099298 -0.00018586211 0.0086339526 0.024974473
11257750000 0.1738565 -0.109845 0.1118013 0.096308678 0.0001886333 -0.00055943185 0.0095901759 0.024560992
11507700000 0.16784643 -0.11473779 0.11753956 0.093452647 -0.00016117455 -0.00015923263 0.010880019 0.02381823
11757650000 0.17018488 -0.12079603 0.12195663 0.086768687 4.8408572e-005 9.4432486e-005 0.013679947 0.024002366
12007600000 0.16588701 -0.12507857 0.12744913 0.082834177 -8.2124745e-005 -0.00036149131 0.015828889 0.024075687
12257550000 0.16448131 -0.13370422 0.13198082 0.073607922 -0.000223469 -0.00010530948 0.017876782 0.024206884
12507500000 0.16075771 -0.13680077 0.1364233 0.068921991 0.00040237544 -0.00051244028 0.017789524 0.024222534
12757450000 0.16174802 -0.14678267 0.13905996 0.05889928 7.0094109e-005 -0.00049644388 0.019999027 0.025430946
13007400000 0.15838072 -0.14646547 0.14406267 0.053861391 -0.0004602882 -5.3016814e-005 0.018908948 0.023860751
13257350000 0.15714292 -0.1556277 0.14706206 0.043261643 6.368936e-005 -0.00018602498 0.021293698 0.024237821
13507300000 0.15181398 -0.15428674 0.15000908 0.037556514 -0.00038597421 -2.1752234e-005 0.020709064 0.021032834
13757250000 0.14920528 -0.16238536 0.15367332 0.028900888 0.00015734963 -0.00061914814 0.024664799 0.021863306
14007200000 0.14104342 -0.16357701 0.15509789 0.02211234 1.4665021e-005 0.00056288927 0.025151685 0.020142507
14257150000 0.13984734 -0.17371304 0.15853468 0.014949982 -0.00046332547 -0.00043624899 0.029040998 0.020349836
14507100000 0.13669857 -0.17149305 0.15876621 0.0068119457 0.00011745842 -0.00016300002 0.030150965 0.021810442
14757050000 0.1342846 -0.18346506 0.16198973 -6.3854102e-005 -0.0002826282 -7.2080016e-005 0.031880621 0.021604398
15007000000 0.1332356 -0.18152985 0.1603124 -0.010148008 -0.00092713104 -0.00065613759 0.031421226 0.019254163
15256950000 0.12863015 -0.18632926 0.16190204 -0.019033782 0.00020784601 -7.8205849e-005 0.032463647 0.021307969
15506900000 0.12343229 -0.18622777 0.16108124 -0.029901998 -0.00037871776 -0.00028542805 0.033412665 0.016988438
15756850000 0.12081803 -0.19097589 0.16038738 -0.038858641 -0.00089772261 -0.0002097658 0.035334852 0.01753634
16006800000 0.11422219 -0.19168834 0.15736523 -0.051076524 -0.00035712824 -0.00032569355 0.040122136 0.014253741
16256750000 0.10738595 -0.19309793 0.15518449 -0.057148248 -0.00029408571 5.7129707e-008 0.041944914 0.016465852
16506700000 0.099530004 -0.19750488 0.15236391 -0.068635851 -0.00056705595 5.0128165e-006 0.042257685 0.015247547
16756650000 0.10129955 -0.20200889 0.15272944 -0.073982887 -0.00034756362 0.00014990535 0.043556735 0.019117683
17006600000 0.093462966 -0.20282824 0.14908606 -0.084621161 -0.00039684257 3.2024313e-005 0.041989069 0.018365048
17256550000 0.093499728 -0.2044453 0.14367282 -0.088645704 -5.4014822e-006 8.7580433e-005 0.042716209 0.015467302
17506500000 0.086033508 -0.20213503 0.14117868 -0.099993713 -0.00039001022 -9.1133137e-005 0.044162851 0.013863456
17756450000 0.086309589 -0.20170432 0.13365801 -0.10485487 -0.00012167267 5.6521993e-005 0.04444655 0.010050934
18006400000 0.076738566 -0.20123667 0.13018769 -0.1189119 0 0 0.049602386 0.0058212639
18256350000 0.074135512 -0.20074651 0.12131342 -0.12381689 -9.0303722e-005 4.5791105e-005 0.052188113 0.0070156748
18506300000 0.067286737 -0.20115434 0.11447465 -0.13558811 -0.00092203898 0.00021145347 0.054981843 0.0065845922
18756250000 0.066477135 -0.20498471 0.1075264 -0.13810331 -0.00050694629 -0.00034573048 0.054477416 0.010858674
19006200000 0.060592704 -0.203973 0.10210069 -0.15224187 -0.0005886064 -0.00030870191 0.057246644 0.0084755979
19256150000 0.060977556 -0.20849761 0.095510818 -0.15319099 -0.00077194959 0.00030310877 0.052997459 0.0097987903
19506100000 0.06016548 -0.19981417 0.085469581 -0.16309808 -0.00011088193 0.0002462866 0.053980995 0.0044701481
19756050000 0.056628674 -0.20197813 0.077668756 -0.16045672 8.6963075e-005 0.00010584366 0.056009926 0.0028245186
20006000000 0.054928381 -0.19606736 0.065842047 -0.16490696 -0.0017405808 0.00015518127 0.058046062 -0.0035504794
20255950000 0.046517156 -0.19457953 0.060202286 -0.17236021 -0.0011599776 -4.9540915e-005 0.064220667 -0.005946063
20505900000 0.043645725 -0.19835393 0.047964416 -0.17256007 -0.00067812402 -0.00035872069 0.066531979 -0.0053038942
20755850000 0.040351287 -0.19507295 0.040528145 -0.18583128 -2.6540145e-005 -0.00073374633 0.071942523 -0.001309187
21005800000 0.038045451 -0.19762325 0.024214694 -0.17991742 0.00039755515 -0.00021623756 0.070605442 0.00042018632
21255750000 0.037784204 -0.19862722 0.012698472 -0.19257209 0.00054869056 0.0010457137 0.069584154 0.0010887018
21505700000 0.034217589 -0.19397479 0.0027177208 -0.18697293 0.00072064123 -0.00019640986 0.062404662 0.0011660793
21755650000 0.0378461 -0.18916968 -0.0056682257 -0.19507451 -0.0003388999 0.0011094959 0.063719533 -0.0059263902
22005600000 0.035159916 -0.18991019 -0.0147717 -0.1892314 0.0006248462 0.0013543371 0.064422369 -0.013323187
22255550000 0.030926844 -0.17877635 -0.028004799 -0.19310889 -0.00076833949 -0.00028499772 0.069829263 -0.016746029
22505500000 0.031372439 -0.17988183 -0.035125095 -0.18355189 -0.00096494041 0.0010278162 0.076848313 -0.014162614
22755450000 0.024740333 -0.17680289 -0.047906835 -0.18814325 -0.00088247965 0.00038748418 0.079826221 -0.013476089
23005400000 0.022928378 -0.17800876 -0.057769269 -0.18636343 -0.0002432709 -0.0001914457 0.081439354 -0.011698217
23255350000 0.021722771 -0.18144131 -0.070386827 -0.1808316 0.0010340553 -0.00037551377 0.080229037 -0.0060123256
23505300000 0.024629792 -0.1797176 -0.088261366 -0.18298915 0.00058424857 0.00016147907 0.078801952 -0.0087264637
23755250000 0.027925059 -0.17707172 -0.096145265 -0.17377402 0.00019811206 0.0019070233 0.075133964 -0.011713921
24005200000 0.032528635 -0.16975461 -0.1116883 -0.17242309 0.0010294096 0.00042297316 0.074721314 -0.020899974
24255150000 0.029182736 -0.16429427 -0.1131269 -0.16430829 4.1361112e-005 0.00064911955 0.080774046 -0.032275587
24505100000 0.031059306 -0.15854369 -0.13414565 -0.16238229 -0.0010187676 0.0011459858 0.08581651 -0.03898501
24755050000 0.024975047 -0.15730478 -0.13348277 -0.14808929 6.9185946e-005 0.000641844 0.096881419 -0.030926175
25005000000 0.022138827 -0.15697424 -0.14478646 -0.13889177 -0.0005051677 -0.00019697763 0.097806789 -0.024091497
25254950000 0.022091426 -0.15755332 -0.1436128 -0.13012922 0.00078101229 0.0004890135 0.098740272 -0.019266134
25504900000 0.029332176 -0.16339374 -0.16155459 -0.12433346 -0.00047964358 0.00057243608 0.091602653 -0.019316282
25754850000 0.034725212 -0.1605116 -0.16892119 -0.11695191 -0.00061566377 0.0016504949 0.082872629 -0.023572747
26004800000 0.038006816 -0.15710998 -0.17507148 -0.10430604 -0.00017646124 0.0017610036 0.076885276 -0.035445374
26254750000 0.042073511 -0.14836243 -0.1866743 -0.099284053 0.00048777787 0.00065393263 0.083185121 -0.042875312
26504700000 0.041100565 -0.14089011 -0.19285649 -0.087304309 0.0010200242 0.00023877335 0.08504004 -0.049480241
26754650000 0.039259419 -0.13932295 -0.20123357 -0.081389189 0.0011058172 -0.00072940072 0.10266171 -0.057680171
27004600000 0.034555878 -0.13981119 -0.20446698 -0.065093018 -0.00070408289 -0.00084512454 0.11245699 -0.049541887
27254550000 0.032115858 -0.142315 -0.21137322 -0.054939847 -0.00081494544 0.00060649606 0.11282826 -0.04441807
27504500000 0.0377331 -0.14892793 -0.20606247 -0.036202699 0.0011611688 0.00072432362 0.11209717 -0.030948412
27754450000 0.043893196 -0.14818302 -0.20700972 -0.023543321 -0.000995824 0.00026790419 0.092812769 -0.028535673
28004400000 0.049913332 -0.15011925 -0.2060159 -0.010620392 -0.00017741775 -0.00077680242 0.085192926 -0.03395436
28254350000 0.058281522 -0.14407407 -0.21172188 -0.00049100124 0.0012983024 -0.00033866416 0.077025957 -0.050364245
28504300000 0.06052367 -0.14105871 -0.21656679 0.014093155 -0.00034324461 0.00075493514 0.084117226 -0.064036168
28754250000 0.062954813 -0.13233459 -0.22019394 0.02436677 0.00059163553 7.4249532e-005 0.095648192 -0.075717121
29004200000 0.054206088 -0.13167657 -0.21871041 0.034901284 -0.00041433488 0.000256359 0.10828727 -0.083582215
29254150000 0.056808468 -0.13786535 -0.22116682 0.044876132 0.0011944349 0.0010069666 0.12203082 -0.073467962
29504100000 0.057787105 -0.1370917 -0.21796718 0.061146989 0.00053358637 -0.0007313161 0.1231076 -0.056362048
29754050000 0.062837183 -0.1514288 -0.21125761 0.077031285 0.00051025348 -0.00057413126 0.11745108 -0.049333859
30004000000 0.072586812 -0.14888729 -0.20431939 0.096736446 -3.0444588e-005 0.0014952895 0.098673284 -0.043575302
30253950000 0.082236014 -0.15302674 -0.19523348 0.11207834 0.00018757679 0.00090846617 0.078848518 -0.055812515
30503900000 0.09209419 -0.13963126 -0.18570824 0.12883672 0.00050618505 0.00033801285 0.073816255 -0.075601637
30753850000 0.093490764 -0.14102757 -0.1747743 0.13828829 0.0027547877 0.00079783908 0.078073524 -0.097840063
31003800000 0.091879897 -0.13467814 -0.16885686 0.15085405 0.00126622 0.00043656107 0.096165612 -0.11472166
31253750000 0.079748355 -0.13544622 -0.16308817 0.15235774 0.00053128268 -0.00041397946 0.11895898 -0.11578818
31503700000 0.083373584 -0.14002068 -0.1539222 0.1591363 0.00017664855 0.00057476608 0.13290291 -0.10655014
31753650000 0.079369865 -0.1490064 -0.1436729 0.16114199 0.00082858343 0.00015026199 0.14281233 -0.083842635
32003600000 0.085182212 -0.15483406 -0.13664082 0.16814004 -0.00041437845 0.00023052772 0.12982398 -0.074843854
32253550000 0.096534036 -0.16115977 -0.13062678 0.17348361 0.0013428229 0.00033401197 0.11362718 -0.064160697
32503500000 0.10207345 -0.15982525 -0.12084673 0.19512831 0.001325422 -0.00041006962 0.093600929 -0.066423938
32753450000 0.10928725 -0.15687266 -0.10132006 0.19479001 0.001433315 0.00023887622 0.079826422 -0.083415844
33003400000 0.1076575 -0.1495865 -0.090232842 0.21348526 0.00087785895 -0.00048492715 0.080001079 -0.10508301
33253350000 0.10593382 -0.15022978 -0.080366708 0.21034315 0.0013552542 0.001666053 0.088438436 -0.12433986
33503300000 0.099086434 -0.1525625 -0.067145184 0.22971065 0.00064730371 -3.1685824e-005 0.10374394 -0.12737456
33753250000 0.096204989 -0.16424993 -0.055076681 0.22059965 0.0019009351 -0.0012231974 0.11404037 -0.12799409
34003200000 0.10045977 -0.16887712 -0.04056564 0.23331536 0.00088847114 0.00072972401 0.12134303 -0.11421801
34253150000 0.10471164 -0.18242431 -0.026819095 0.22289227 0.0012158303 -0.00083023054 0.11284257 -0.10800716
34503100000 0.11918219 -0.18710665 -0.013457541 0.22824427 0.0012022739 -0.0010573793 0.10108547 -0.1046875
34753050000 0.12079898 -0.18369864 -0.0028046267 0.2236041 0.00048128318 -0.0016035922 0.093271531 -0.11369111
35003000000 0.1325264 -0.18378863 0.01900694 0.23017506 0.00055367762 -0.0012235524 0.093809195 -0.1234239
35252950000 0.12657702 -0.1712312 0.029792139 0.22961208 -0.0015187652 -0.0012527984 0.097757772 -0.13484362
35502900000 0.12463529 -0.17902772 0.053571146 0.2318354 0.00020730709 -0.00117539 0.10753003 -0.13454367
35752850000 0.11489293 -0.17480616 0.054714303 0.22065516 0.0012005916 -0.00071440975 0.1107984 -0.1304476
36002800000 0.11111049 -0.18680519 0.067334197 0.21787664 -0.00099272944 -0.0012444819 0.11248814 -0.11981262
36252750000 0.11099083 -0.19812137 0.081460409 0.21576002 0.0011952085 -0.0004231192 0.1025803 -0.10753623
36502700000 0.11397111 -0.20013329 0.08775118 0.21461079 -0.00042253471 0.00014669786 0.081771895 -0.11353157
36752650000 0.11803023 -0.20872577 0.11397409 0.20256922 0.00025249069 0.00046995931 0.068049982 -0.11776341
37002600000 0.12264052 -0.2032349 0.11034185 0.19067393 -0.001002941 -0.00087523909 0.065761119 -0.14606012
37252550000 0.12198785 -0.20115988 0.12619545 0.1895251 4.2411582e-005 -0.00081761798 0.075567111 -0.16647425
37502500000 0.11868156 -0.19382666 0.13455836 0.19807158 -0.0015106024 0.00086853013 0.097801253 -0.18534346
37752450000 0.11034565 -0.19379304 0.15891397 0.18197009 -0.00079917454 -0.0010654294 0.12047437 -0.17222911
38002400000 0.10069592 -0.19708525 0.16876027 0.17974755 -0.00099606544 -0.0016624019 0.12970932 -0.15770631
38252350000 0.098405808 -0.20634459 0.18400049 0.15485345 -0.00096688134 -0.0014592892 0.12970723 -0.13138473
38502300000 0.097107433 -0.21560191 0.18756957 0.14852789 -2.4495739e-005 -0.0016088062 0.11204975 -0.1198878
38752250000 0.1071595 -0.219606 0.20329326 0.14300448 -0.0021049208 -0.00056586915 0.083278701 -0.11578932
39002200000 0.10659028 -0.22268984 0.20893039 0.12181351 0.00044726254 -0.0010767691 0.060352776 -0.13106847
39252150000 0.11523357 -0.21695849 0.21988934 0.10033199 0.00015547586 -0.00050601549 0.054226112 -0.15272915
39502100000 0.10641894 -0.20894994 0.21404295 0.08912693 -0.00065386557 -0.0004658738 0.060947284 -0.18152165
39752050000 0.10713339 -0.20904373 0.22280407 0.075847231 0.00068445678 8.4816798e-005 0.076900512 -0.19697419
40002000000 0.097481593 -0.20513703 0.22246417 0.073313855 -0.0018013852 0.001119206 0.098751388 -0.19822143
40251950000 0.090804398 -0.2116489 0.23394638 0.055361781 6.3334912e-005 -0.00057978422 0.10990545 -0.18499124
40501900000 0.090464421 -0.21136615 0.23771136 0.049455572 0.00070930319 -0.00045064415 0.11206608 -0.17309523
40751850000 0.092204839 -0.22448893 0.24461584 0.021665329 -0.00069628097 -0.00063822197 0.097749941 -0.14960976
41001800000 0.10459729 -0.2187182 0.24431618 0.017802281 0.00051568355 -0.00099814893 0.074322648 -0.1575262
41251750000 0.10454952 -0.21306792 0.25440094 -0.0084646 -0.00030771038 -0.0015544404 0.061797753 -0.1642734
41501700000 0.11279372 -0.19775404 0.25253046 -0.020882932 -0.00038044274 -0.00045253208 0.048133709 -0.1922598
41751650000 0.10458659 -0.192481 0.26019949 -0.047085684 0.00070147536 -0.00098329387 0.056143474 -0.2017737
42001600000 0.10219254 -0.18537679 0.24769275 -0.066120163 -0.00082037004 -0.0013910244 0.067433082 -0.21856576
42251550000 0.087598979 -0.18623675 0.23701495 -0.079305604 -7.0029608e-005 -0.00047705387 0.088515162 -0.21316375
42501500000 0.086453125 -0.19178922 0.22796671 -0.083600186 0.0017943404 -0.00029762907 0.090757936 -0.20205204
42751450000 0.080497615 -0.20692395 0.22675912 -0.096542537 -0.0017295716 0.0010577993 0.086291917 -0.18037483
43001400000 0.093199596 -0.21233265 0.21608938 -0.11024286 0.00028295533 0.00033653711 0.07291048 -0.17813566
43251350000 0.097768702 -0.21153283 0.20192011 -0.11796936 -0.0028175011 0.00076454913 0.053630095 -0.1680429
43501300000 0.11384143 -0.20659049 0.2047279 -0.1334299 -0.0020877831 -0.0012728015 0.031543143 -0.18647872
43751250000 0.10555153 -0.19814751 0.1996921 -0.15255438 0.00053568254 -0.0024271065 0.032898381 -0.20291328
