!Agilent Technologies,E8364C,MY43040239,A.09.42.22
!Agilent E8364C: A.09.42.22
!Date: Sunday, September 14, 2025 22:25:44
!Correction: S11(Full 2 Port(1,2)) 
!S21(Full 2 Port(1,2)) 
!S12(Full 2 Port(1,2)) 
!S22(Full 2 Port(1,2)) 
!S2P File: Measurements: S11, S21, S12, S22:
# Hz S  RI   R 50
10000000 0.067492224 0.0032340013 -0.2443645 -0.0083590671 0.0071012899 -0.0032843754 0.22275721 -0.01312659
259950000 0.064225256 0.0057128598 -0.26072499 -0.0011496323 0.00042142006 -0.00098210014 0.043414969 -0.12538448
509900000 0.065718822 0.0096227955 -0.30405608 0.034244161 -0.00017348585 -8.3810854e-005 -0.058307242 0.026504647
759850000 0.069446594 0.012414138 -0.30182204 0.043994222 -0.00018540259 0.0001100791 -0.032079477 0.0083078062
1009800000 0.071899459 0.01456705 -0.29922372 0.061952002 -0.00031905944 -5.2845113e-005 -0.028273607 0.0068429434
1259750000 0.074787147 0.016961712 -0.29627895 0.078828394 0.00034348099 0.00029518013 -0.028604908 0.0063831457
1509700000 0.077903874 0.017006632 -0.29355711 0.096535996 0.00038995186 -0.00024420297 -0.026613524 0.0071521364
1759650000 0.081016831 0.018330187 -0.2857677 0.11175392 -0.00035594389 0.00018235866 -0.026275808 0.007819158
2009600000 0.083802052 0.018783055 -0.27951169 0.12713195 -0.00018659781 -0.00014810907 -0.026325922 0.0094489064
2259550000 0.087647825 0.019809434 -0.27120584 0.14444532 0.00067939895 -0.00042309967 -0.025690617 0.0096965125
2509500000 0.09170644 0.019787392 -0.26378721 0.1587168 5.8604437e-005 -0.00047547006 -0.023854274 0.010196302
2759450000 0.092885867 0.020036904 -0.2545535 0.17225125 0.00039794765 -0.00062340626 -0.023755582 0.011974985
3009400000 0.096472047 0.019496799 -0.24368416 0.18725996 0.00060043379 0.00040882279 -0.023375696 0.011699658
3259350000 0.0990187 0.020409055 -0.22765091 0.19999522 -0.00029603773 -4.6894447e-006 -0.023477493 0.010684031
3509300000 0.10424668 0.016560702 -0.22630703 0.21562193 5.6493e-006 -0.0005039947 -0.024422502 0.013065575
3759250000 0.10569226 0.017219974 -0.19898613 0.22468521 -0.00036117446 0.00041699212 -0.025067683 0.017138211
4009200000 0.10927405 0.01461765 -0.19216791 0.23928471 0.00015537259 -0.00031929885 -0.020676356 0.016920624
4259150000 0.11541539 0.013494961 -0.18222786 0.23820138 0.00015067715 0.00055162539 -0.021628803 0.019164458
4509100000 0.11851366 0.014149883 -0.16777137 0.25300243 -0.00049566408 1.3952391e-005 -0.018696534 0.018317012
4759050000 0.12108428 0.011255936 -0.15325525 0.25958225 -0.00012847269 -4.7882412e-007 -0.018477008 0.019168476
5009000000 0.12679955 0.010411295 -0.14325687 0.26364791 -2.2477099e-005 0.00025406259 -0.017822411 0.018925706
5258950000 0.12766244 0.0071581267 -0.12233766 0.27699247 0.00023499291 0.0001283961 -0.016825786 0.018541297
5508900000 0.13351315 0.0042339033 -0.11227583 0.27388874 0.00044711115 0.0001972508 -0.01580622 0.019251116
5758850000 0.13480969 -0.00030985585 -0.091139905 0.28733265 -0.00018392262 -0.0006966957 -0.0136719 0.020379936
6008800000 0.13871254 -0.0032678873 -0.076470681 0.28969419 -0.00018352276 -9.7808566e-005 -0.013912966 0.021211626
6258750000 0.14261392 -0.0051953727 -0.061176956 0.29165128 0.00041855694 0.00030996779 -0.012817903 0.022024248
6508700000 0.14747317 -0.0096575869 -0.050617702 0.29455966 -8.4108746e-005 -0.00022919156 -0.012254422 0.022126157
6758650000 0.14931393 -0.010569073 -0.028327698 0.29419503 0.00018493965 0.00016822026 -0.011334768 0.022174224
7008600000 0.15364696 -0.018062668 -0.01678683 0.29809162 0.00041870042 7.4789357e-005 -0.0099847922 0.022087947
7258550000 0.15527296 -0.017006122 0.0011344397 0.29350847 0.00015116659 -0.00018013347 -0.0085296817 0.022317719
7508500000 0.15852961 -0.025980631 0.0083867339 0.29422283 -0.00033166644 0.00024371986 -0.007938196 0.022939585
7758450000 0.15873423 -0.029011363 0.027493758 0.29188183 -2.8925333e-005 -4.1399584e-005 -0.0078696813 0.022613015
8008400000 0.16541708 -0.036028609 0.041290846 0.28689966 -0.00047465527 -1.23192e-006 -0.0059829135 0.023990689
8258350000 0.16490795 -0.036882672 0.058341466 0.28654709 0.00027620155 0.00032287536 -0.0047288616 0.023570566
8508300000 0.17007829 -0.047243211 0.068575673 0.28105533 0.00022657376 -2.9522984e-005 -0.0031964155 0.024726925
8758250000 0.17023452 -0.049867555 0.086578764 0.2791332 4.083362e-006 -3.123398e-005 -0.002986572 0.025420273
9008200000 0.17605333 -0.056254279 0.098620303 0.27410811 -0.00067947619 -0.00038924089 -0.002011952 0.024755497
9258150000 0.17126791 -0.059720445 0.11260543 0.27003586 0.0006368793 8.1280035e-005 -0.00028470648 0.024084996
9508100000 0.17792737 -0.066904068 0.12334633 0.26528549 0.00021247374 -0.00040201432 0.0014042392 0.023480687
9758050000 0.1720672 -0.071107872 0.13603224 0.26057392 2.7310722e-005 6.4033513e-005 0.0042250673 0.023416407
10008000000 0.17599568 -0.078712739 0.14748476 0.25110784 0.00042154541 -2.4623909e-005 0.0047266809 0.024799308
10257950000 0.1785882 -0.084445305 0.16030523 0.24404234 -2.0053954e-005 -0.00048513204 0.006117525 0.025582729
10507900000 0.17638923 -0.09357278 0.17211217 0.23544648 0.00025025278 -0.00066658907 0.0064172396 0.024447504
10757850000 0.17932922 -0.094939128 0.18339153 0.22748011 -0.00031642703 -0.00042282301 0.0077937553 0.025407348
11007800000 0.1758938 -0.10696618 0.1969303 0.21629551 -0.00037897733 -1.5619109e-005 0.0099755162 0.025031108
11257750000 0.17843056 -0.10757358 0.20929049 0.21227017 0.00049452321 0.00012229932 0.0093395505 0.025074974
11507700000 0.17416599 -0.11705799 0.21983042 0.20020425 0.00013362359 -0.00038982742 0.010879267 0.023994919
11757650000 0.17615163 -0.1171765 0.23059595 0.19645025 0.00030972285 0.00027957911 0.013067315 0.02407355
12007600000 0.17131241 -0.12557718 0.24082227 0.184579 0.00014963852 -0.00020421098 0.01592683 0.024043135
12257550000 0.17098032 -0.13183835 0.25153187 0.17244913 -0.00019706349 0.00014311781 0.017218526 0.024520498
12507500000 0.16457272 -0.13966882 0.2588467 0.1571147 0.00034207359 1.062728e-005 0.018245878 0.024604721
12757450000 0.16889353 -0.14645728 0.2675966 0.14653012 0.00020381245 -0.00023618281 0.019610919 0.025284428
13007400000 0.16269267 -0.15011756 0.27510449 0.12759367 4.2478121e-005 -0.00014229145 0.020473978 0.023850078
13257350000 0.16458736 -0.15520629 0.2836526 0.11581487 2.0707341e-005 -0.00056707353 0.020559248 0.023609264
13507300000 0.15669353 -0.15737079 0.29066297 0.098486096 -0.00050278282 0.00022989794 0.021767201 0.021033835
13757250000 0.15660578 -0.16222401 0.30012548 0.090395108 -0.00036068889 2.8430864e-005 0.023952303 0.020845145
14007200000 0.14645913 -0.16790007 0.30385289 0.071057878 -0.00027362062 -6.4573214e-005 0.026181314 0.020929122
14257150000 0.14816067 -0.17383121 0.31271183 0.064115077 -6.2044957e-005 -0.00040045421 0.028055135 0.020572104
14507100000 0.14114505 -0.1769446 0.31394821 0.042794071 -0.00048516336 -0.00053215597 0.030056616 0.022326766
14757050000 0.14175752 -0.18349327 0.32218775 0.036636028 5.6840028e-005 -0.00032448207 0.03188321 0.022108378
15007000000 0.13410431 -0.18826246 0.32254303 0.0086318161 -0.00048979337 -0.00020646135 0.03146017 0.020078801
15256950000 0.13510136 -0.19145748 0.32685974 -0.0035873447 -3.0645951e-005 0.00017213641 0.031810906 0.020788299
15506900000 0.12916106 -0.19413541 0.32918167 -0.029569956 0.0002862229 0.0001101419 0.034234181 0.018513093
15756850000 0.12631001 -0.19242164 0.32640439 -0.040770672 -0.00036690183 0.00049788598 0.034534078 0.016594738
16006800000 0.11867873 -0.19644335 0.32434374 -0.066959254 -0.00025008898 -0.00023514185 0.039505787 0.014880003
16256750000 0.11148746 -0.19719517 0.31674325 -0.081097387 -0.00018568465 -3.8695864e-005 0.041518692 0.016293056
16506700000 0.1056492 -0.20609324 0.32392299 -0.10265128 -0.00024961584 0.00046955401 0.04355472 0.016974572
16756650000 0.10433692 -0.2053151 0.3154735 -0.11280982 7.5030592e-005 4.3223983e-005 0.043848082 0.017008772
17006600000 0.099262774 -0.20993958 0.32099193 -0.13385387 -0.00069518579 0.00031006132 0.043575618 0.017950471
17256550000 0.096762054 -0.20929156 0.30405268 -0.14438201 -7.9803707e-005 0.00028720364 0.044291165 0.015931236
17506500000 0.092693537 -0.21028064 0.30801085 -0.16421378 -0.00030719367 0.00015831257 0.044893332 0.014623991
17756450000 0.087230861 -0.20641977 0.28707299 -0.1781434 -3.9253486e-005 6.4952837e-005 0.044225391 0.0094598513
18006400000 0.081429787 -0.21031317 0.29228365 -0.20455435 -0.00057468907 0.00024162135 0.049039956 0.0074774274
18256350000 0.076403148 -0.20634623 0.26648396 -0.21875897 -0.00010841562 -0.00012772779 0.052451733 0.0057585761
18506300000 0.071546011 -0.2103838 0.2672962 -0.24253561 -0.00031703155 -7.8834419e-005 0.054965232 0.0086517399
18756250000 0.06879583 -0.20882343 0.24631493 -0.24947098 -0.00025826879 -2.4786994e-005 0.056022611 0.010096234
19006200000 0.063649498 -0.21515922 0.2464425 -0.27743509 -0.00056759809 0.0010190631 0.056476384 0.010887367
19256150000 0.063546449 -0.2134247 0.22391437 -0.28329203 0.00020009781 -0.0004857271 0.055060968 0.008565668
19506100000 0.06198832 -0.21126769 0.21770982 -0.30334929 -0.00070063758 0.00053425704 0.054947805 0.006373683
19756050000 0.060325768 -0.20683692 0.19268496 -0.30342475 -0.00048591534 -2.0403495e-005 0.055980157 0.00063652388
20006000000 0.056048162 -0.20391998 0.17366709 -0.3113862 -0.00031958867 0.001774248 0.059666522 -0.003763465
20255950000 0.046993375 -0.20258753 0.16703208 -0.32912943 -0.00079373375 -6.8706555e-005 0.064359978 -0.0067803296
20505900000 0.045946974 -0.20225978 0.13806365 -0.33614653 0.00011367179 0.001810956 0.068059921 -0.0025405467
20755850000 0.041221626 -0.20573413 0.12961623 -0.36030346 -0.0015688782 4.9481332e-006 0.070343353 -0.0012199294
21005800000 0.038380533 -0.20364508 0.093625374 -0.36197397 0.00064643391 0.0028401269 0.071643986 0.0009180847
21255750000 0.037593309 -0.20974539 0.082855299 -0.37914467 0.0010666936 -0.0010680592 0.068571292 0.0024420214
21505700000 0.031663075 -0.2013617 0.052502796 -0.37945929 -0.00058087439 0.00050651433 0.063963883 0.0021516839
21755650000 0.038008232 -0.19989276 0.046382967 -0.39097205 -0.00018584605 0.00021846371 0.064016171 -0.0019326961
22005600000 0.033912212 -0.19601563 0.015384109 -0.3867932 -3.0575091e-005 0.00045286311 0.063365944 -0.01222024
22255550000 0.030893508 -0.18974859 -0.00053364102 -0.393448 0.0011001582 -0.00090704515 0.069048002 -0.015458714
22505500000 0.029473985 -0.1860673 -0.027980965 -0.37996989 0.0012872043 0.00055846671 0.076474674 -0.014548247
22755450000 0.021680435 -0.18763465 -0.03844941 -0.38904923 0.00013907392 0.0024089119 0.080170654 -0.013267411
23005400000 0.018329604 -0.18764171 -0.067709848 -0.39208987 -0.00081272901 -0.00043584121 0.082726263 -0.010712306
23255350000 0.020544171 -0.18933757 -0.093907505 -0.38456696 -0.00083963922 -4.4523826e-005 0.080954999 -0.0070268861
23505300000 0.021238904 -0.18980891 -0.1231767 -0.39267868 0.00061066059 0.00037015448 0.078974634 -0.0080337413
23755250000 0.029286815 -0.18334565 -0.14763637 -0.38029459 0.00069066545 0.0008187124 0.07543157 -0.014916402
24005200000 0.025648603 -0.178229 -0.17352624 -0.38204363 0.00042460024 0.00040106277 0.077659301 -0.022046143
24255150000 0.028691895 -0.17357707 -0.19084212 -0.36514813 0.00057918497 0.0013538037 0.078450881 -0.031031502
24505100000 0.023220347 -0.16574766 -0.21443212 -0.36182377 -0.00098667829 -9.4710267e-005 0.088585258 -0.036424141
24755050000 0.023250585 -0.16727869 -0.23319907 -0.33590728 0.00024008261 0.0010570574 0.094512299 -0.03295191
25005000000 0.01769866 -0.16460669 -0.25013497 -0.32486027 -0.00015511726 0.0018858389 0.10033437 -0.024784887
25254950000 0.020702211 -0.16723806 -0.2627382 -0.30531058 -7.3316427e-005 0.00077833945 0.097476572 -0.01834025
25504900000 0.024771864 -0.16925222 -0.28633299 -0.29544184 0.0013156728 0.00093624176 0.093662731 -0.019062353
25754850000 0.026009908 -0.17048797 -0.30800211 -0.28139442 -8.875403e-005 0.0011145246 0.083784334 -0.02244482
26004800000 0.032728825 -0.16515338 -0.32960364 -0.26348707 0.001708806 4.0417883e-005 0.078699626 -0.030775668
26254750000 0.037057865 -0.15618886 -0.3511872 -0.24744716 0.001214296 0.00073464704 0.081407286 -0.041025154
26504700000 0.036342569 -0.14994887 -0.37074679 -0.23676223 0.0014961667 -0.0005102299 0.086381681 -0.051681314
26754650000 0.031567775 -0.14761081 -0.38505882 -0.21649553 0.00039200005 -0.00089584722 0.10041335 -0.055124309
27004600000 0.028960383 -0.14618789 -0.399598 -0.19524744 0.0015169932 -0.00097753771 0.11087687 -0.053042915
27254550000 0.026383266 -0.15225859 -0.40877384 -0.16141838 -0.00012868734 0.0002121226 0.11650465 -0.041387763
27504500000 0.030740192 -0.15344101 -0.41415453 -0.13466685 0.0017544974 0.00046891323 0.11031055 -0.031066494
27754450000 0.036317136 -0.15815267 -0.40991518 -0.098660275 0.0011955118 -0.0010362625 0.096576348 -0.02559421
28004400000 0.044638086 -0.15696158 -0.41945544 -0.079563349 0.002492026 0.00010520316 0.082471207 -0.035021722
28254350000 0.048628654 -0.15280303 -0.42075172 -0.057432331 0.00094587076 -0.00015130411 0.077571243 -0.047898877
28504300000 0.054465987 -0.14764918 -0.44750744 -0.032315772 0.00081233762 -0.00035318156 0.083826989 -0.064868383
28754250000 0.051689576 -0.13803993 -0.44629523 -0.0075424183 0.00040645871 -0.0002730306 0.098075166 -0.076222621
29004200000 0.048514012 -0.13823174 -0.45502865 0.0048091956 0.00062724552 0.0017693702 0.11037854 -0.08382605
29254150000 0.045515589 -0.13968138 -0.4537212 0.034189783 0.001535138 0.0021781584 0.12400647 -0.071967974
29504100000 0.048995685 -0.14706887 -0.46387929 0.062710211 -0.00047627281 0.00099949958 0.12303225 -0.057769224
29754050000 0.051384237 -0.15156101 -0.44334257 0.10410309 -0.00013511736 -0.002276866 0.12214883 -0.045135789
30004000000 0.063863494 -0.15420876 -0.44006997 0.13785399 0.00049739709 -4.2780088e-005 0.10039444 -0.043008998
30253950000 0.075807251 -0.15246712 -0.42286584 0.17642523 0.00067505258 0.00013128079 0.086526871 -0.054277983
30503900000 0.081197195 -0.14470349 -0.41861531 0.20850413 0.00029708119 -0.00053482951 0.070590541 -0.076014943
30753850000 0.084582925 -0.14202738 -0.38718036 0.23146281 0.0012956283 -0.000112069 0.08299531 -0.098768517
31003800000 0.081011929 -0.13886712 -0.39153558 0.25618747 0.00029734056 7.2447416e-005 0.094987355 -0.1124956
31253750000 0.071964346 -0.13804014 -0.36093807 0.26557004 0.0016436862 0.00050236209 0.1196567 -0.12105983
31503700000 0.070659518 -0.14197211 -0.36300987 0.28058207 0.00077406864 -0.00030345347 0.13533418 -0.10446553
31753650000 0.068771757 -0.15182866 -0.32636297 0.28694043 0.00027165742 1.9189525e-005 0.14587258 -0.089171506
32003600000 0.074753575 -0.1580732 -0.32354644 0.30183575 0.00070904003 -0.00063157844 0.13081685 -0.075046435
32253550000 0.08499743 -0.16117972 -0.30607668 0.31961054 0.0011100642 0.00052816083 0.11605697 -0.063366488
32503500000 0.091516532 -0.16148363 -0.30371895 0.36014333 -0.00019391558 -0.0006242962 0.092700511 -0.065798439
32753450000 0.097513959 -0.15495476 -0.25203544 0.3714495 0.0006257568 0.00056962995 0.081552677 -0.083350368
33003400000 0.09797205 -0.15278313 -0.24258892 0.40991771 0.0015002282 -0.0022348426 0.079427317 -0.10666817
33253350000 0.095273614 -0.14772384 -0.2058987 0.4082081 0.0022046634 -9.6393116e-005 0.094103679 -0.1211304
33503300000 0.085929215 -0.15363286 -0.20289186 0.44133049 0.00017399501 0.00012431094 0.10359898 -0.1279155
33753250000 0.087432027 -0.16041625 -0.16216862 0.43678391 0.00010071183 -3.6351972e-005 0.11756963 -0.12740855
34003200000 0.086950317 -0.16993101 -0.14936709 0.46525723 0.00071995275 -0.00051534054 0.11731251 -0.1147682
34253150000 0.096826449 -0.17967805 -0.10196634 0.44480345 -0.00051243603 -0.00030941769 0.11595973 -0.10822546
34503100000 0.10360605 -0.18440357 -0.088459417 0.46228105 0.0015964874 -0.0009061016 0.10123101 -0.10435916
34753050000 0.11115294 -0.18177648 -0.055583607 0.44503495 0.00097484339 -0.0017229334 0.095088087 -0.11505233
35003000000 0.11802798 -0.17595865 -0.026049757 0.47641042 -0.00031963983 -0.0010557084 0.090267196 -0.12336954
35252950000 0.1166288 -0.16942556 0.0086896056 0.46406671 0.00043586182 -0.0010521644 0.10030039 -0.13613722
35502900000 0.11273099 -0.16998753 0.043514375 0.48350346 0.0002033287 -0.0015465622 0.10588479 -0.13588744
35752850000 0.10431492 -0.17567857 0.061560296 0.45324251 0.00078848755 -0.0012157015 0.11469395 -0.13154773
36002800000 0.10103711 -0.18151484 0.080234013 0.45647883 -0.00064851856 -0.0011580539 0.11249457 -0.12018882
36252750000 0.10018143 -0.18798167 0.10731074 0.4622322 0.0011302989 -0.00077903818 0.10048907 -0.10874814
36502700000 0.10315206 -0.19692935 0.13215449 0.44651988 -0.00013973782 -0.00073878397 0.088318661 -0.11404458
36752650000 0.10978135 -0.20014624 0.17406449 0.43690014 0.00089143671 -0.0010042348 0.067064352 -0.11764343
37002600000 0.1151767 -0.19748183 0.18571696 0.41051352 -0.00025821681 -0.00036641804 0.065784968 -0.14812717
37252550000 0.1131885 -0.19232555 0.20256995 0.422739 0.00032472465 -0.00025162654 0.072521009 -0.16948558
37502500000 0.11060908 -0.18770562 0.23106496 0.42360508 0.00046288737 -0.00081093796 0.097320676 -0.18425825
37752450000 0.10242073 -0.18454567 0.27241769 0.4149588 -0.00062642863 -0.00041408959 0.11773188 -0.17232543
38002400000 0.093958072 -0.18930447 0.30023596 0.3991504 0.00057743961 -0.00023510153 0.13083114 -0.1575776
38252350000 0.088846348 -0.19687404 0.32620302 0.36583167 -0.0011709095 -0.00042812736 0.12396237 -0.13187179
38502300000 0.090940066 -0.20402706 0.34594399 0.35413691 0.00025454204 -0.00098050013 0.11115109 -0.11865316
38752250000 0.098515719 -0.21303095 0.37251785 0.3292172 -0.001394049 -0.00083928334 0.084536202 -0.11910091
39002200000 0.1044099 -0.2126618 0.40400252 0.30170611 -0.00077955815 -0.0021614025 0.065882988 -0.13232842
39252150000 0.1055392 -0.20733391 0.41611767 0.2511965 -0.00068584987 0.00028742707 0.05230033 -0.15704019
39502100000 0.10681967 -0.20172147 0.42017621 0.23262119 -0.00024837776 -8.3864179e-005 0.061030004 -0.18166906
39752050000 0.098428212 -0.19608691 0.42694649 0.20504296 0.00028432065 -0.00095889065 0.070963673 -0.19975127
40002000000 0.093167752 -0.1943977 0.42929891 0.19916688 -0.0006939845 -0.00036107324 0.099486768 -0.1996343
40251950000 0.087848052 -0.1991469 0.45660961 0.17326717 -0.00074426003 0.00028849384 0.11046796 -0.18542816
40501900000 0.08452069 -0.2063971 0.47594684 0.14930391 0.00071705907 -0.0011498585 0.11186541 -0.17226924
40751850000 0.092093982 -0.20988533 0.48257205 0.10577384 0.00019463382 -0.0017920152 0.095477693 -0.15253225
41001800000 0.098146342 -0.21054529 0.4954401 0.089965455 0.0001845443 -0.0013460377 0.077039964 -0.15572721
41251750000 0.10548228 -0.20107459 0.51075131 0.044426423 0.0008146477 -0.00094342267 0.053003635 -0.16520447
41501700000 0.1094626 -0.18869813 0.52358931 0.013088639 -0.0012518051 -0.0023643018 0.053720456 -0.18966429
41751650000 0.1045234 -0.18170993 0.52843851 -0.037619315 -0.00013034744 -0.0005665755 0.05494415 -0.20454991
42001600000 0.098417886 -0.176373 0.52412581 -0.07866399 -0.00024065799 0.00021451731 0.072614282 -0.22187737
42251550000 0.087260924 -0.17388682 0.48968101 -0.10798243 0.00073041627 0.00036641204 0.083060645 -0.21174201
42501500000 0.082822084 -0.18376808 0.48502862 -0.12242011 -0.001601244 0.00024858079 0.094588667 -0.20226927
42751450000 0.077550925 -0.19280699 0.47362635 -0.15026475 -0.0012172626 -0.0002608764 0.086478159 -0.18160605
43001400000 0.090235732 -0.20397104 0.46808636 -0.18585399 0.0023562303 -0.00027536624 0.074323833 -0.17786656
43251350000 0.10059512 -0.20005098 0.42716181 -0.19424117 -0.0011347379 0.0012257327 0.04917999 -0.1702704
43501300000 0.10679767 -0.19549778 0.44863886 -0.23210335 0.00036115994 0.00081872137 0.035050772 -0.18715854
43751250000 0.10995705 -0.18620667 0.43045795 -0.26445004 -0.00097098236 0.0053051086 0.030733848 -0.20378229
