!Agilent Technologies,E8364C,MY43040239,A.09.42.22
!Agilent E8364C: A.09.42.22
!Date: Sunday, September 14, 2025 22:26:30
!Correction: S11(Full 2 Port(1,2)) 
!S21(Full 2 Port(1,2)) 
!S12(Full 2 Port(1,2)) 
!S22(Full 2 Port(1,2)) 
!S2P File: Measurements: S11, S21, S12, S22:
# Hz S  RI   R 50
10000000 0.069719903 -0.00079658278 -0.35764199 -0.0098565379 -0.0030184719 0.00082185172 0.24613711 -0.024764528
259950000 0.063077599 0.0048597846 -0.39098266 -0.015995927 0.0010315267 -0.00076038414 0.056349263 -0.14574403
509900000 0.06645444 0.0095368726 -0.45603046 0.054355241 -0.00038261685 -0.0002388126 -0.058108203 0.029260213
759850000 0.069916591 0.013064784 -0.45033661 0.066201895 3.5311397e-005 -0.00034981701 -0.032310013 0.0094329501
1009800000 0.072809547 0.01614034 -0.44691375 0.091622204 0.00017063426 -0.0002686533 -0.028384373 0.0073406589
1259750000 0.075749554 0.01742767 -0.44359896 0.11707508 6.4402193e-005 -0.00011134273 -0.028888261 0.0058760145
1509700000 0.07810057 0.018117456 -0.43866593 0.14106204 9.3037124e-005 -5.6409699e-005 -0.026417902 0.0067320308
1759650000 0.080596894 0.018425738 -0.42970297 0.16695656 -0.00039858735 0.00011789666 -0.02572122 0.0084340069
2009600000 0.083926283 0.019265646 -0.41941211 0.19123785 -0.00011723569 1.9817988e-005 -0.026125282 0.0099644763
2259550000 0.087059915 0.020566341 -0.40798736 0.21385263 0.00031463383 -0.00029482204 -0.02588306 0.0099641914
2509500000 0.091518402 0.020092925 -0.3956596 0.23846848 -0.0001789853 -4.3689768e-005 -0.023787191 0.0099376487
2759450000 0.09325774 0.020029411 -0.38073465 0.25908709 -0.00014573548 -0.00016137636 -0.024040535 0.011447717
3009400000 0.097251482 0.021234749 -0.36634877 0.27852115 -0.00032937297 0.00034003172 -0.024200937 0.01118579
3259350000 0.099759065 0.019776896 -0.34904951 0.29970548 -1.2459987e-005 0.00032052639 -0.023172205 0.011284513
3509300000 0.10656793 0.021416198 -0.33240023 0.3184098 -0.00012926993 -3.2950735e-005 -0.025106492 0.013432236
3759250000 0.10631213 0.01584235 -0.30870941 0.3335765 -7.9711917e-006 -2.5343921e-005 -0.02371393 0.018504618
4009200000 0.11404782 0.017818658 -0.29297784 0.35170162 0.0002581669 8.8413013e-005 -0.021980781 0.017700521
4259150000 0.11387315 0.017831124 -0.27209184 0.36078179 0.00014123636 0.00015978218 -0.019868534 0.019013692
4509100000 0.11965875 0.015494536 -0.25384444 0.37755218 4.0349147e-005 -0.00022814317 -0.019104078 0.018223716
4759050000 0.12335075 0.01372211 -0.23391895 0.38701794 -0.00024552306 7.8208577e-006 -0.018192604 0.018681681
5009000000 0.12699282 0.012724823 -0.21058427 0.39941335 -0.00011870229 -0.00017653727 -0.017644674 0.018687738
5258950000 0.1306871 0.0069950498 -0.18882838 0.40943012 0.0001716097 0.00034215735 -0.016634004 0.018899722
5508900000 0.1327845 0.0080027655 -0.16621932 0.4168022 0.00031049806 0.00021609481 -0.015599073 0.019422047
5758850000 0.13809001 0.00050283252 -0.14177601 0.42350116 3.2594879e-005 -1.3668821e-006 -0.013652626 0.020149192
6008800000 0.14120728 0.00028056063 -0.11899438 0.43101504 -0.00019353013 -0.00015603802 -0.014306935 0.021927448
6258750000 0.14464815 -0.0025009811 -0.095570974 0.43650067 -8.6982582e-005 0.00032972536 -0.013636867 0.021660132
6508700000 0.15196581 -0.0046851793 -0.074380144 0.4406642 5.1452898e-005 -0.00024144111 -0.012495016 0.021717461
6758650000 0.15082775 -0.008994814 -0.055087514 0.44360483 2.2386965e-005 1.7676984e-005 -0.010813798 0.022043861
7008600000 0.1593217 -0.013645578 -0.025089884 0.44443876 0.00025697981 -0.00020500738 -0.010139072 0.021994948
7258550000 0.15756808 -0.015438294 -0.010329022 0.44049445 -6.7898029e-005 -0.00019072508 -0.0082922457 0.022496017
7508500000 0.16464277 -0.021180034 0.018139036 0.44096521 2.9388135e-005 1.3737814e-005 -0.0085007511 0.022790069
7758450000 0.16480069 -0.028141512 0.038606312 0.43217576 0.0001812446 -5.6123605e-005 -0.00662742 0.023139531
8008400000 0.16971794 -0.029840482 0.057711877 0.43847692 0.0001695492 -7.1769718e-005 -0.0062116892 0.023643726
8258350000 0.16891925 -0.037645556 0.077473357 0.42486015 -0.00020754544 -0.000171647 -0.0047622961 0.023771496
8508300000 0.17682838 -0.041639186 0.099538252 0.4299604 -3.371678e-005 0.0004721453 -0.0037402485 0.025487527
8758250000 0.17612416 -0.050076243 0.12352147 0.4140926 0.00032978781 -0.00013158191 -0.0021172948 0.024612026
9008200000 0.18125947 -0.05004672 0.13987154 0.42017969 0.00028583128 -0.00014461119 -0.0016629227 0.024706027
9258150000 0.17918506 -0.060025975 0.16291383 0.40118834 -6.2372906e-006 -0.00014306615 0.00025290524 0.023283642
9508100000 0.18191856 -0.061860804 0.17619425 0.4085964 0.0001944175 3.6255078e-005 0.0014804091 0.023325719
9758050000 0.18180272 -0.073691256 0.20070274 0.38632593 -0.00024973217 9.8502402e-005 0.0042901696 0.023933474
10008000000 0.18285671 -0.077274308 0.21575636 0.38208705 0.00018063681 -0.00022443387 0.0054055625 0.024338612
10257950000 0.18196519 -0.083810516 0.22925958 0.37467977 -5.8500991e-005 0.00017719656 0.0061038877 0.024367912
10507900000 0.18731332 -0.092532545 0.25886059 0.35613796 0.00031745178 -0.00030902575 0.0066178273 0.025093209
10757850000 0.18319571 -0.094989985 0.26402751 0.35025412 0.00019196299 9.0436013e-005 0.0077573359 0.024490228
11007800000 0.18778585 -0.10488275 0.29735819 0.33004954 6.4061402e-005 0.00011421724 0.0092652813 0.026028514
11257750000 0.18341458 -0.10767075 0.29928663 0.32560334 3.1853881e-005 -2.3676153e-005 0.0091984849 0.024387123
11507700000 0.18533571 -0.11701316 0.33347279 0.30780107 -0.00027727717 -0.00010692063 0.01019296 0.025086198
11757650000 0.18109547 -0.11803053 0.3323265 0.30417147 0.00054629939 0.00019254372 0.013185659 0.025211448
12007600000 0.18009657 -0.12630059 0.35768113 0.28615704 -0.0003066237 -0.00020916779 0.015685122 0.024570772
12257550000 0.17762582 -0.1323932 0.3653976 0.2710436 -5.7788962e-005 -0.00011218372 0.017343922 0.024530195
12507500000 0.17556559 -0.14300559 0.39080954 0.23946716 -4.3831136e-005 -0.00060487579 0.017869158 0.024788558
12757450000 0.17700112 -0.14629066 0.39129749 0.23153064 4.5456189e-005 0.00065855542 0.020053053 0.024654333
13007400000 0.17530648 -0.15378281 0.41778046 0.20009597 -0.00058802887 -0.00010828792 0.019246593 0.025001533
13257350000 0.17190559 -0.15599084 0.41784999 0.18553638 -0.00012535074 -9.1312548e-005 0.02056342 0.022934666
13507300000 0.16833629 -0.16270854 0.44333896 0.15689684 -0.00021414104 0.0002826819 0.021399686 0.022368856
13757250000 0.16315885 -0.16416763 0.44144329 0.14635587 2.1879858e-005 -0.00061006355 0.025341582 0.020671748
14007200000 0.15890443 -0.17424056 0.46523231 0.11818547 2.1442365e-005 4.179286e-005 0.025408017 0.022308916
14257150000 0.15477608 -0.17607512 0.46209559 0.10810758 -5.7594858e-005 -0.00026071048 0.028467951 0.019340986
14507100000 0.15345347 -0.18490781 0.48243132 0.074740842 -0.00035901568 -0.0003764086 0.031358257 0.0226337
14757050000 0.14835657 -0.18787414 0.48047608 0.068670399 -0.00026025783 -4.9897728e-005 0.031484593 0.020835515
15007000000 0.14689994 -0.19832118 0.49792147 0.025899487 -4.1340103e-005 -8.7203616e-006 0.030282598 0.020996938
15256950000 0.14399473 -0.19795434 0.49600875 0.0050630099 -0.00054394279 1.3416373e-005 0.032460432 0.021218242
15506900000 0.14216311 -0.20040877 0.50450689 -0.026205769 0.00042446921 -0.00045102005 0.033722583 0.017868379
15756850000 0.13101774 -0.1994013 0.49028033 -0.052927099 -0.00075973116 -0.00037123475 0.036429722 0.016626637
16006800000 0.12663963 -0.20430936 0.49496138 -0.091716707 9.1406764e-005 -0.00027238004 0.039510261 0.014501618
16256750000 0.11819115 -0.20757894 0.48851129 -0.11875215 -0.00052958837 -0.00011733133 0.043542448 0.015499925
16506700000 0.11695052 -0.21250588 0.49894896 -0.13472241 4.886627e-005 -2.1400203e-005 0.042000182 0.01770027
16756650000 0.11059869 -0.21586536 0.48679447 -0.16754046 -0.00039771778 -1.3134368e-005 0.045516476 0.017884931
17006600000 0.10791834 -0.21685342 0.4926154 -0.18198907 -0.00011519381 0.00026793324 0.043192979 0.019350719
17256550000 0.10266843 -0.22176887 0.47238135 -0.2158518 6.8539666e-005 0.00068744429 0.043813325 0.015793413
17506500000 0.10068648 -0.21803151 0.47189218 -0.23016286 -0.00027926615 0.00015627635 0.043976985 0.014338027
17756450000 0.094527975 -0.21907644 0.44784206 -0.26963034 -0.00022536161 9.7278556e-005 0.045739699 0.0093795117
18006400000 0.089434549 -0.21931711 0.44894752 -0.29347831 -3.5878507e-005 0.00015033119 0.048133116 0.0053629437
18256350000 0.080768898 -0.21946001 0.41919982 -0.33230114 -0.00019675029 -0.00016105661 0.053500876 0.0070384047
18506300000 0.079902016 -0.21972488 0.41350839 -0.35243255 -0.00087410514 -0.00016131217 0.053531673 0.008140075
18756250000 0.071063973 -0.22359437 0.38971764 -0.38230154 -0.00047947219 -0.00039397649 0.057892494 0.0099812625
19006200000 0.072093807 -0.22573322 0.3853178 -0.40690923 -0.00023213217 -0.00023849754 0.055078804 0.010351596
19256150000 0.065257147 -0.22641739 0.35814324 -0.4336119 -0.00035144572 -7.2183507e-006 0.055808742 0.0098341042
19506100000 0.069821298 -0.22271913 0.34151036 -0.4481726 -0.00014527972 0.0010756147 0.053257905 0.004958747
19756050000 0.060028668 -0.21935594 0.30905667 -0.46750772 -0.00023796703 0.00056371989 0.059103489 0.00085225352
20006000000 0.059543923 -0.21656328 0.28121608 -0.47844014 0.00012121226 0.00039778338 0.056741823 -0.0025349553
20255950000 0.053730175 -0.21767868 0.26184225 -0.49222139 -0.0016582194 0.0006635079 0.063487388 -0.006136484
20505900000 0.044709921 -0.21781926 0.2318363 -0.5174312 -0.0010381079 -0.00073511817 0.069366887 -0.0028004867
20755850000 0.044167705 -0.21725094 0.20439641 -0.54174805 9.8653982e-005 0.00098641007 0.069674984 0.0010971129
21005800000 0.036128391 -0.21848352 0.1662322 -0.55616015 0.0007481121 -0.00066595862 0.072806768 7.0424787e-005
21255750000 0.042236947 -0.22170979 0.12990223 -0.57233697 -0.00042260528 -9.6766207e-006 0.066902459 0.002004063
21505700000 0.031640042 -0.2164733 0.10401366 -0.584939 -0.0018444783 -0.00016077963 0.065444127 0.0020607149
21755650000 0.039459299 -0.21409084 0.075619474 -0.59103072 0.00037622527 0.00021077447 0.061041549 -0.0027092395
22005600000 0.033479434 -0.21077231 0.04715389 -0.59769374 -0.0016067089 -0.000960798 0.06755466 -0.011317575
22255550000 0.030726161 -0.20110659 0.0066065202 -0.59385544 -0.00098367454 -0.001196061 0.070083126 -0.016735697
22505500000 0.026346168 -0.20067807 -0.021334961 -0.59461606 -0.00070634153 0.00050801656 0.078798719 -0.014975617
22755450000 0.022637086 -0.20056689 -0.055611894 -0.59254819 0.00017626624 -0.00013817442 0.082659051 -0.014711474
23005400000 0.021417733 -0.20225754 -0.095799848 -0.59252059 -0.00088949798 0.00052117318 0.081902422 -0.010259491
23255350000 0.015404521 -0.20309195 -0.12451546 -0.60177255 -0.00080365199 9.289744e-005 0.081917122 -0.008239435
23505300000 0.020380134 -0.20594829 -0.17759559 -0.59629709 0.00023097575 0.0010298438 0.078248508 -0.0099776927
23755250000 0.021453086 -0.19720145 -0.21040317 -0.60306776 -0.0011360302 0.00061761902 0.076737598 -0.017900499
24005200000 0.023306265 -0.19611679 -0.25452894 -0.57651097 -0.00022356083 -0.00054243417 0.075971767 -0.023507472
24255150000 0.022052482 -0.18236268 -0.27607846 -0.58142662 0.00051879068 -0.0011846042 0.081958093 -0.034153298
24505100000 0.018187674 -0.18571816 -0.32079732 -0.55015022 -0.00017978513 0.0013539871 0.084467635 -0.033398177
24755050000 0.018467052 -0.17785482 -0.34664559 -0.53882891 -5.906666e-005 0.00081250066 0.095182627 -0.031866338
25005000000 0.011421518 -0.18358235 -0.37356535 -0.49648234 0.00074831845 0.00022005595 0.10005718 -0.021885073
25254950000 0.015715407 -0.17709854 -0.38783965 -0.4893581 0.00024363224 0.00075130886 0.097818606 -0.019787198
25504900000 0.01440903 -0.18427269 -0.43097422 -0.45456219 0.00029379834 0.0010476683 0.090846896 -0.017719669
25754850000 0.021729233 -0.18460777 -0.47509187 -0.4432258 0.00080878945 0.00031356633 0.08188051 -0.021563724
26004800000 0.025551233 -0.17583725 -0.48941785 -0.42511457 0.00086521317 0.0012537804 0.081794038 -0.031453885
26254750000 0.02795261 -0.17205948 -0.54121071 -0.39480266 -8.787703e-005 0.00059163797 0.082849324 -0.043478902
26504700000 0.026180625 -0.15916076 -0.55118114 -0.3836692 -0.00030312533 0.0012606347 0.089109957 -0.053466424
26754650000 0.023408167 -0.16091603 -0.59828162 -0.34931284 0.00098489958 0.00075407536 0.10008622 -0.055444177
27004600000 0.017556347 -0.15926713 -0.59911793 -0.31835145 0.0013904851 -0.00032480736 0.11382376 -0.051777892
27254550000 0.016307293 -0.16521429 -0.63592124 -0.26377732 -0.0003845176 0.00060359272 0.11234823 -0.043849602
27504500000 0.017783862 -0.16586404 -0.61773527 -0.225941 -0.0010623132 -0.00046981385 0.11586102 -0.03417509
27754450000 0.026664766 -0.16914167 -0.64030105 -0.16453776 -0.0009597271 -8.7372027e-005 0.094450451 -0.025752466
28004400000 0.031162461 -0.1656481 -0.6358372 -0.15117803 -0.00045037712 0.00035280976 0.085205808 -0.038349189
28254350000 0.037418939 -0.16531998 -0.6564799 -0.097367108 0.0016299811 -0.00019739532 0.078462109 -0.047521226
28504300000 0.039676897 -0.15479268 -0.68345708 -0.082537405 0.001058713 -2.1884483e-005 0.083655916 -0.067044981
28754250000 0.037999172 -0.15090129 -0.69720304 -0.024907347 -1.7133021e-005 9.6470729e-005 0.096656516 -0.07481426
29004200000 0.035075348 -0.14479886 -0.69785744 -0.020839054 0.0010809748 -8.3846637e-005 0.10991605 -0.082510628
29254150000 0.027476097 -0.15253328 -0.71409434 0.03771982 0.00096661819 0.00027423428 0.12197487 -0.07353209
29504100000 0.035472352 -0.15053479 -0.72133565 0.062573187 -0.00015822433 -0.0004732837 0.12722161 -0.05783857
29754050000 0.033259649 -0.16133244 -0.70959157 0.15148726 -0.00020947482 0.00065960665 0.1165287 -0.045888048
30004000000 0.045634434 -0.16003881 -0.69595408 0.19092254 0.00030643854 -9.5081661e-005 0.10006579 -0.044604465
30253950000 0.054182988 -0.16007647 -0.67739904 0.26398247 0.00072360795 0.00054448692 0.083829425 -0.050751895
30503900000 0.065960087 -0.15473436 -0.6619736 0.29490814 0.00072182721 -0.0001280892 0.069291271 -0.078191586
30753850000 0.062477045 -0.1455228 -0.62158102 0.35379371 -0.00048981316 0.00088975177 0.083628178 -0.095819846
31003800000 0.063472755 -0.14521845 -0.61462861 0.37523988 0.00060755108 0.00030906484 0.093312263 -0.11509813
31253750000 0.050537571 -0.14035992 -0.58829266 0.4110921 8.9381874e-006 0.001184463 0.12257502 -0.11708558
31503700000 0.050985433 -0.14765579 -0.57358921 0.41595721 0.0014469939 0.0012682333 0.13124517 -0.10580435
31753650000 0.051182441 -0.15262248 -0.53361547 0.45031485 0.00076027692 -0.00050153316 0.14867878 -0.087104797
32003600000 0.054413591 -0.15826918 -0.53054142 0.46146557 0.0011463918 -0.00084873341 0.13162626 -0.072304621
32253550000 0.066004731 -0.16224387 -0.51242435 0.49663535 0.00081985525 -8.4557134e-005 0.11653117 -0.061845329
32503500000 0.07469859 -0.160973 -0.48970062 0.5459376 0.00057869824 -0.00080576329 0.095850021 -0.068447739
32753450000 0.077385902 -0.15578523 -0.42884862 0.58692467 0.0016638953 -5.8502748e-005 0.081249364 -0.081694253
33003400000 0.080350451 -0.14701334 -0.40354621 0.62815595 0.00099764997 0.0005227612 0.081320204 -0.10683794
33253350000 0.072085045 -0.14387709 -0.35622966 0.65444905 0.00061902043 -0.00067248143 0.088282429 -0.12163053
33503300000 0.070844315 -0.14947352 -0.33662394 0.68859816 0.00032283526 -0.00021308912 0.10437528 -0.13038154
33753250000 0.064425789 -0.15544507 -0.28508219 0.705612 0.0010253883 0.0010788485 0.11986466 -0.12541695
34003200000 0.071328364 -0.16578512 -0.25737527 0.7231645 0.0020311824 0.00045911656 0.12114283 -0.11598037
34253150000 0.074229158 -0.16749057 -0.18971594 0.72501218 0.0019146443 -0.00037711981 0.11770665 -0.10569794
34503100000 0.086607561 -0.179297 -0.16135921 0.73017448 0.00091363402 -0.0007958315 0.10005973 -0.10477819
34753050000 0.094019666 -0.1681262 -0.10302391 0.73732865 -0.00052072509 -0.00063658663 0.097544387 -0.11330616
35003000000 0.099692419 -0.16921398 -0.062237538 0.7609781 -0.00051218621 5.8237525e-005 0.091030844 -0.12469966
35252950000 0.1025515 -0.1538137 0.0084275911 0.77414817 -0.00037509252 -0.0019363073 0.10171448 -0.13408008
35502900000 0.092755653 -0.16100584 0.061882067 0.77356154 0.0011673513 -0.00062964624 0.10226142 -0.13914795
35752850000 0.093908958 -0.15969686 0.098986454 0.75808436 -0.00053715863 -0.00096158561 0.11769711 -0.13095982
36002800000 0.086218126 -0.1667306 0.11873085 0.74563736 0.0005828623 -0.00081442331 0.11471086 -0.11991288
36252750000 0.082423322 -0.17471819 0.15881972 0.74561703 -0.0004639634 -0.00057179353 0.10071644 -0.11158222
36502700000 0.092631094 -0.18227965 0.21936992 0.74341005 -0.00011138132 -0.00039671935 0.086270846 -0.1125387
36752650000 0.094531842 -0.18362999 0.27668163 0.70438814 0.00068178622 -0.00062093139 0.0677827 -0.12050497
37002600000 0.10499389 -0.18112695 0.30029592 0.68845981 0.0017245521 -0.0011284159 0.067913383 -0.14574805
37252550000 0.10285525 -0.17733687 0.33188033 0.67954642 0.0016776385 -0.00038693415 0.074012756 -0.16916683
37502500000 0.10170559 -0.16978505 0.3888084 0.70377141 0.0010591288 -0.00053683651 0.099630438 -0.18510614
37752450000 0.09128239 -0.16856949 0.43966481 0.67007911 -0.00032610851 -0.0019884675 0.11957515 -0.17792068
38002400000 0.085581012 -0.17175342 0.51209569 0.66234678 0.00068617181 -0.00020137371 0.12906501 -0.15499984
38252350000 0.081161559 -0.18154988 0.53656876 0.57936656 0.00035265693 -0.0016465519 0.12601657 -0.13577075
38502300000 0.082121737 -0.18649301 0.56562483 0.57905036 0.00019457481 -0.002864663 0.10921114 -0.11874609
38752250000 0.095782764 -0.19698662 0.63374227 0.52285588 0.00094848004 0.0011777264 0.087158106 -0.12242827
39002200000 0.098051876 -0.19407478 0.6701628 0.49147502 -0.00032434097 -0.00084693776 0.065177821 -0.13145208
39252150000 0.10304048 -0.19292349 0.70352852 0.38819382 -0.0022127891 0.00033584563 0.053219911 -0.16041315
39502100000 0.10425743 -0.1805156 0.69645518 0.37071151 -0.0011587301 -0.00078121782 0.058381356 -0.18224442
39752050000 0.098088376 -0.18213142 0.72775984 0.30687627 -0.0013230951 3.0821732e-007 0.073251233 -0.20360473
40002000000 0.093164437 -0.17779736 0.72002643 0.30785924 -0.00031415265 -0.00047910097 0.099515662 -0.20225646
40251950000 0.082616076 -0.18119106 0.75090039 0.24695016 0.00069002283 -0.00049489271 0.11222163 -0.18827574
40501900000 0.086995468 -0.18996099 0.79554516 0.22668011 0.00011841553 -0.001039721 0.11296536 -0.16929542
40751850000 0.087108888 -0.19240017 0.79461819 0.13154037 -0.00033908244 -0.0011348973 0.097498901 -0.15666687
41001800000 0.10292825 -0.19604124 0.81597805 0.12968197 -0.0012384804 -0.0012980315 0.075107768 -0.15424551
41251750000 0.10496242 -0.183639 0.83652234 0.022008989 0.0011067562 -0.00031747951 0.053492442 -0.17128463
41501700000 0.11368109 -0.17622693 0.86196393 -0.0037653567 -0.0021251594 -0.0010324578 0.047775481 -0.18875085
41751650000 0.10552176 -0.16603383 0.86043674 -0.11479347 0.000428984 -0.0021654924 0.052639183 -0.21032435
42001600000 0.10283763 -0.16294517 0.85330999 -0.15907204 -0.00065127213 0.00035592969 0.071979389 -0.21848193
42251550000 0.090635143 -0.16100451 0.78930116 -0.22634904 -0.0017461838 0.0014678696 0.082990803 -0.21707237
42501500000 0.089206122 -0.1696047 0.77839482 -0.22933719 -0.0028723136 -0.001658982 0.095944323 -0.19953501
42751450000 0.080981649 -0.17978005 0.75884718 -0.30305323 -0.0023910224 0.00025002551 0.085516378 -0.18887886
43001400000 0.094728246 -0.1923604 0.74441618 -0.33408681 -0.0017053873 0.000260039 0.073459722 -0.17604727
43251350000 0.10244074 -0.18752843 0.67224622 -0.36945406 -0.00070359744 0.0003223574 0.047815628 -0.1717227
43501300000 0.1142623 -0.18690927 0.70592433 -0.40952674 -0.00097590953 0.00011617938 0.032746069 -0.1838821
43751250000 0.11762521 -0.17175019 0.65403807 -0.48051131 -0.00073798135 -0.0016674649 0.029379709 -0.20609355
