!Agilent Technologies,E8364C,MY43040239,A.09.42.22
!Agilent E8364C: A.09.42.22
!Date: Sunday, September 14, 2025 22:30:20
!Correction: S11(Full 2 Port(1,2)) 
!S21(Full 2 Port(1,2)) 
!S12(Full 2 Port(1,2)) 
!S22(Full 2 Port(1,2)) 
!S2P File: Measurements: S11, S21, S12, S22:
# Hz S  RI   R 50
10000000 0.07236445 -0.0019744367 -0.74103647 -0.027290385 0.00815365 0.0012072154 0.34887403 -0.047252651
259950000 0.063921571 0.0055487482 -0.9884885 -0.15621105 0.00055921113 -0.00071218133 0.09548106 -0.22383158
509900000 0.067246586 0.010220336 -1.1482831 0.15452971 -0.00026488886 0.00034917943 -0.057019189 0.04250969
759850000 0.070952289 0.013165501 -1.1244702 0.17941816 0.00028808837 0.00024266972 -0.028119979 0.010926683
1009800000 0.073853277 0.016776029 -1.1180565 0.24242626 -0.00034575319 9.0617315e-005 -0.023930805 0.0081701856
1259750000 0.077171974 0.019054713 -1.1081266 0.30281097 -0.00013005642 -5.3890108e-005 -0.024943652 0.0066168969
1509700000 0.080143213 0.019894086 -1.0885916 0.36337587 -6.370325e-005 2.6627031e-005 -0.023050493 0.0068033291
1759650000 0.083135843 0.020898413 -1.0585591 0.42481637 0.00024519069 0.000513918 -0.023019187 0.0074759531
2009600000 0.085702203 0.02175512 -1.0333697 0.48508745 8.5306514e-005 0.00015323695 -0.022290438 0.008815839
2259550000 0.090470701 0.023384122 -1.0032101 0.54125816 0.00050717528 -0.00036377431 -0.021881375 0.0089542056
2509500000 0.094398126 0.024082478 -0.97363091 0.59750021 -4.9991177e-005 -4.7907459e-005 -0.02184351 0.0096102711
2759450000 0.096651733 0.024244817 -0.94131756 0.64893073 -4.739466e-005 0.00054053537 -0.020682359 0.010486481
3009400000 0.10045211 0.023920963 -0.90212417 0.70309037 0.00039278876 0.00016620813 -0.020853147 0.01006964
3259350000 0.10361735 0.025181618 -0.83940673 0.75172836 6.1191895e-005 -0.00010683713 -0.021096844 0.01000306
3509300000 0.10907751 0.022234991 -0.83360213 0.80880111 0.00034643049 -0.00033352274 -0.022537312 0.011538384
3759250000 0.11107421 0.022908775 -0.73167586 0.83731979 -0.00020434018 0.00038789905 -0.023547567 0.01769737
4009200000 0.11574606 0.022677656 -0.70045805 0.90096283 -0.00052440987 -0.00080976775 -0.017739708 0.017725561
4259150000 0.12191226 0.019474616 -0.67673182 0.89187646 0.00053426559 -0.00018710655 -0.017814666 0.018824363
4509100000 0.12524655 0.019456819 -0.6118055 0.94177914 -8.5460539e-005 -0.00027111504 -0.015363343 0.017527245
4759050000 0.12959975 0.017970279 -0.55935967 0.96383786 -2.2336005e-006 -4.7512764e-005 -0.014883257 0.018044492
5009000000 0.13528498 0.015377154 -0.52876681 0.97990483 0.00021039663 -1.0784517e-005 -0.014138116 0.017866785
5258950000 0.13719237 0.013873135 -0.43195367 1.0267875 -3.7472306e-005 2.0568386e-005 -0.013924329 0.017755831
5508900000 0.14286673 0.0097497916 -0.41306692 1.0202566 -0.00027790162 -5.5262601e-005 -0.01266036 0.018144736
5758850000 0.14478646 0.0074701542 -0.31710404 1.0585141 -0.00022839237 0.00041261539 -0.010699363 0.018470347
6008800000 0.14925341 0.0028196187 -0.27046862 1.0638359 -0.00040065567 -9.1023066e-005 -0.011390184 0.020585436
6258750000 0.15419579 0.00042747046 -0.21767929 1.0779661 1.7564489e-005 0.00065261341 -0.010109806 0.020687515
6508700000 0.15968154 -0.0044269171 -0.17519827 1.0872661 0.00043817051 -0.00043366555 -0.0090110926 0.019809075
6758650000 0.16355428 -0.0061724316 -0.096173652 1.0756274 -0.00029383262 5.9694103e-005 -0.0085550621 0.021101482
7008600000 0.16789629 -0.013463292 -0.057923328 1.0952343 0.00032035567 0.00016176306 -0.0069475994 0.021077361
7258550000 0.17164229 -0.012714966 0.014124385 1.0723034 -0.0001419914 0.00016599383 -0.0050280285 0.020848241
7508500000 0.17451775 -0.023178181 0.034719307 1.0782763 1.1745637e-005 0.00021161497 -0.0054140021 0.02216674
7758450000 0.17505059 -0.026410691 0.10828476 1.0717844 -0.00017543269 -0.00022174159 -0.0041432325 0.02127129
8008400000 0.18231218 -0.034429636 0.14855914 1.0497077 -0.00014505212 -0.00040299361 -0.0026963996 0.021877127
8258350000 0.1846479 -0.035531867 0.21696246 1.0442934 0.00012267179 0.0001307029 -0.0017131557 0.021728992
8508300000 0.18893942 -0.047868889 0.24695259 1.0279896 -1.739007e-005 -0.00046160788 -0.00065449224 0.022443347
8758250000 0.19136973 -0.049392104 0.31980845 1.0212675 0.00041148445 -0.00053478219 -0.00045565679 0.02293957
9008200000 0.1959565 -0.05792075 0.34747553 0.99892539 -0.00019662466 -0.00051825558 0.00058498554 0.023824086
9258150000 0.19329825 -0.061937299 0.40550458 0.9934231 -3.8473903e-005 -0.00012752274 0.00254359 0.022446446
9508100000 0.19895962 -0.071915492 0.44033194 0.96707249 3.7518868e-005 -6.0801172e-005 0.0052346517 0.022666611
9758050000 0.19390883 -0.075039186 0.49244681 0.958682 0.00022702466 -5.163097e-005 0.0065582236 0.021186093
10008000000 0.198181 -0.084829278 0.52485472 0.92659134 0.00020838519 -6.0268503e-005 0.007601623 0.022681944
10257950000 0.20216374 -0.092598476 0.57605731 0.89531302 0.00021282432 0.00010689576 0.0082835844 0.023029096
10507900000 0.1984642 -0.10124941 0.61407423 0.88220865 0.00047146503 -0.00028694552 0.0095653869 0.022516809
10757850000 0.2027562 -0.10559538 0.65899152 0.84286082 -0.00032499764 -6.0201171e-005 0.010554411 0.023019254
11007800000 0.1972622 -0.1175822 0.707739 0.81350148 0.00010806511 -0.00016324899 0.012112419 0.023285959
11257750000 0.20217249 -0.12072086 0.74863189 0.79065514 0.0002901424 -0.00036785332 0.012296611 0.023006778
11507700000 0.1954183 -0.13180761 0.79373705 0.76182407 -0.00011808383 0.00012985086 0.014241904 0.022044633
11757650000 0.19889715 -0.13461958 0.83293253 0.74243456 -0.00015000746 -8.9948669e-005 0.015978124 0.022664512
12007600000 0.19284593 -0.1432789 0.87402439 0.7075054 -0.00029630962 -0.00045702749 0.018613704 0.021507813
12257550000 0.19329305 -0.1513088 0.91445392 0.66971856 -0.00015661561 -0.00026636416 0.02037348 0.022310406
12507500000 0.18396576 -0.1602094 0.94437099 0.61272973 -0.00018340832 -0.00051686808 0.021350991 0.02237677
12757450000 0.18901333 -0.16979182 0.98283768 0.56926274 -1.4865748e-005 -0.00038159449 0.021840768 0.023087256
13007400000 0.1819163 -0.17285228 1.0077189 0.51502901 -5.7705296e-005 -0.00039664982 0.022668185 0.021426944
13257350000 0.18353355 -0.18031715 1.0550632 0.46865663 0.00015243443 0.00027798666 0.023608634 0.022122411
13507300000 0.17293042 -0.18298326 1.077878 0.40663037 -0.00021965221 -0.00010460032 0.024501232 0.018879794
13757250000 0.17189388 -0.19017054 1.1202976 0.37243283 -0.00049496896 -0.00055111496 0.026596183 0.018748943
14007200000 0.16009922 -0.19532089 1.1372882 0.30897781 -0.0006603488 -0.00041347303 0.029317211 0.018256791
14257150000 0.16074875 -0.20364325 1.1787866 0.27498153 -0.00010732922 -0.00064348825 0.030987227 0.017619591
14507100000 0.15257029 -0.20606185 1.1863679 0.21026038 -0.000702427 -0.00019854338 0.033503272 0.019910002
14757050000 0.15343976 -0.21682028 1.2267231 0.17596693 -0.00058804295 -0.000348008 0.034375321 0.019142395
15007000000 0.14406812 -0.21951406 1.2285756 0.087005742 -0.0006872408 -4.3455067e-005 0.03503589 0.018159963
15256950000 0.14219499 -0.22333452 1.2522948 0.026600663 -0.00034831592 -0.00024418975 0.035234462 0.018207612
15506900000 0.13406484 -0.22720554 1.263706 -0.069265924 -0.0003811644 2.0618629e-005 0.036780085 0.016231289
15756850000 0.131116 -0.22648357 1.2749392 -0.11501948 -0.00040410546 0.0001898894 0.037602887 0.013685176
16006800000 0.12139513 -0.23120357 1.2613331 -0.21912448 -0.00013454759 -0.0002247479 0.042319663 0.011538829
16256750000 0.1113234 -0.23178393 1.2449871 -0.27575821 -0.00013909182 -0.00030753235 0.044343919 0.012160404
16506700000 0.10439507 -0.24050348 1.2712401 -0.36379912 -0.00034042605 0.00038552063 0.045595758 0.012922284
16756650000 0.10243896 -0.24031278 1.2476826 -0.40113845 -0.00054729905 -6.427124e-005 0.046866536 0.014026704
17006600000 0.094647497 -0.24572496 1.272403 -0.48913714 -0.00014086171 -0.00011410659 0.047068972 0.015082047
17256550000 0.089824244 -0.24387218 1.212594 -0.52909833 -0.00024365685 -0.00022964623 0.046142701 0.012171599
17506500000 0.084054723 -0.24569647 1.2287835 -0.62182134 1.1277017e-006 0.00023475518 0.047032613 0.011199057
17756450000 0.079017535 -0.24073921 1.1569992 -0.67887354 -0.00024481135 3.4404628e-005 0.047323707 0.005655346
18006400000 0.068945259 -0.24427558 1.1722838 -0.79084468 0.00010822457 -0.00057827483 0.050510809 0.0036201475
18256350000 0.062641747 -0.23992084 1.0816802 -0.84593087 0.00028524324 0.00021625034 0.054918528 0.0022064815
18506300000 0.056680169 -0.24317308 1.0795834 -0.94965136 -0.00035057255 0.00048926222 0.056965932 0.0042806296
18756250000 0.051648021 -0.24242964 1.0018873 -0.98839265 -0.00022533769 0.0006212616 0.058474723 0.0062985271
19006200000 0.044191387 -0.24719654 1.0007787 -1.1101016 -0.00026113729 0.00010133825 0.059617687 0.0055043884
19256150000 0.04389267 -0.2451607 0.91566861 -1.1330278 -0.00038675743 0.00015752837 0.055941116 0.0048297835
19506100000 0.039327662 -0.24144241 0.8860265 -1.2245847 -0.00047430489 0.00049545005 0.057768319 0.0015483013
19756050000 0.03700757 -0.23715778 0.79044253 -1.2222167 -0.000493959 0.00029581873 0.058462195 -0.0035074146
20006000000 0.029917922 -0.23031095 0.71274143 -1.2782394 -0.00015915884 -0.00019611178 0.059002012 -0.009040162
20255950000 0.020305939 -0.23003478 0.68306375 -1.347652 0.00022689068 -0.0010931026 0.064055301 -0.01163438
20505900000 0.017803859 -0.22880946 0.56266761 -1.3772256 -0.001719042 0.0014070497 0.06930615 -0.00930038
20755850000 0.012084715 -0.23007773 0.5173462 -1.4820156 -0.0012501954 0.0018557642 0.071602918 -0.0030657817
21005800000 0.0081443032 -0.22659324 0.37386391 -1.4804901 0.00073725259 0.0015659167 0.073135264 -0.004216983
21255750000 0.0072377361 -0.22882795 0.31707269 -1.5759176 0.0016681189 -0.00073381199 0.069566824 -0.0021017571
21505700000 0.00087027182 -0.21890195 0.19566961 -1.5575625 -0.0010582656 8.4159666e-007 0.065491617 -0.0058090403
21755650000 0.003031912 -0.21580803 0.15048882 -1.6172018 -0.00015097998 -0.00066098361 0.06386479 -0.0070832595
22005600000 0.00023661176 -0.2128564 0.028950254 -1.59162 0.0011925142 -0.00063168426 0.066220053 -0.01694973
22255550000 -0.0059672985 -0.20352302 -0.050945323 -1.6329157 0.00032095952 -0.00057282386 0.071346313 -0.018543489
22505500000 -0.0058217673 -0.19644535 -0.1582396 -1.5703973 -0.0017122845 2.0151227e-005 0.076478943 -0.022107037
22755450000 -0.015074604 -0.19832219 -0.22108647 -1.6205467 0.0011408784 7.3108677e-005 0.084127977 -0.019094275
23005400000 -0.019006673 -0.19638637 -0.33970338 -1.6206304 -0.00020377091 -0.00011032683 0.084838971 -0.015793838
23255350000 -0.016957216 -0.19523722 -0.46422395 -1.5776205 -0.0016538828 -0.0013786455 0.081519559 -0.013136554
23505300000 -0.019062126 -0.19409338 -0.58693647 -1.6127322 0.0005091647 0.0007029858 0.079828836 -0.012914518
23755250000 -0.010166502 -0.18736215 -0.70438659 -1.5596099 0.001548218 -8.4317413e-005 0.074236207 -0.016179942
24005200000 -0.012027266 -0.1793064 -0.81213021 -1.5544184 -0.00082898809 7.026206e-005 0.077284977 -0.028720457
24255150000 -0.011835705 -0.16964749 -0.88234043 -1.4874899 0.0010657365 -0.00045390453 0.077834092 -0.036822941
24505100000 -0.015366694 -0.16347125 -0.99445397 -1.4587501 0.00010372821 0.00033047871 0.085915759 -0.042758457
24755050000 -0.016055748 -0.15937702 -1.0737376 -1.3521844 0.00039455236 -0.00082535128 0.09480764 -0.038834084
25005000000 -0.022171009 -0.15360427 -1.1511676 -1.2935002 0.00056318886 0.0012354942 0.10113569 -0.029481824
25254950000 -0.018165471 -0.15381083 -1.1867915 -1.1986227 0.0008278903 0.00031409482 0.099825755 -0.023469791
25504900000 -0.010741735 -0.15382446 -1.3107587 -1.1540841 0.00055799301 0.00092807855 0.092566922 -0.024022304
25754850000 -0.0080108615 -0.15329413 -1.398765 -1.0837319 0.00090427976 0.00047100245 0.084893376 -0.025890714
26004800000 0.00022980095 -0.14513868 -1.4841356 -0.99337751 0.00095982384 0.00065361557 0.080667734 -0.035883386
26254750000 0.0036542607 -0.13630493 -1.5768381 -0.92364502 0.0001216726 0.00087593589 0.085044362 -0.044825416
26504700000 0.005346382 -0.12470251 -1.666502 -0.84655052 -0.00016537642 8.0795151e-005 0.085151717 -0.060165476
26754650000 7.4782809e-005 -0.12131012 -1.717543 -0.75513536 0.00042545979 0.001868427 0.10032672 -0.059939187
27004600000 0.00012623111 -0.12084705 -1.7844954 -0.64061272 0.0009177191 0.00070917385 0.10938544 -0.05920431
27254550000 -0.00045236255 -0.12381218 -1.8089519 -0.49733514 0.0012485285 0.00070719252 0.11425765 -0.043845583
27504500000 0.0058696512 -0.12569626 -1.8195057 -0.36947772 0.000427083 0.00022620581 0.10672182 -0.036208004
27754450000 0.012715268 -0.12542625 -1.7919849 -0.21463777 0.0004095422 0.00032176476 0.094004437 -0.032473147
28004400000 0.02445041 -0.12205235 -1.8280758 -0.11609192 0.0020810859 3.0677114e-005 0.08306063 -0.042433586
28254350000 0.031592295 -0.11701193 -1.8264838 -0.0086973468 0.00010765284 -0.00018450645 0.077677816 -0.055563018
28504300000 0.039149143 -0.11165125 -1.9115973 0.11880863 0.00061432569 -0.00032849706 0.082999006 -0.071417175
28754250000 0.039875265 -0.10061786 -1.8970037 0.23243426 0.00074752147 0.00091438636 0.097686738 -0.08219102
29004200000 0.037230376 -0.10006958 -1.9301339 0.30647546 0.0013120088 2.9334922e-005 0.10730845 -0.090677507
29254150000 0.038869943 -0.10381944 -1.9031686 0.43716466 0.00052933331 0.0010237633 0.1229215 -0.079155043
29504100000 0.044181988 -0.10810219 -1.9307251 0.57655722 0.0011445169 -0.00042525091 0.124058 -0.063569427
29754050000 0.052266777 -0.11668263 -1.8203149 0.74643916 0.00096110866 -0.00044125953 0.11767974 -0.050658442
30004000000 0.064790107 -0.11819565 -1.764643 0.90344739 0.00029857486 0.00093812391 0.096218392 -0.050931998
30253950000 0.07956478 -0.1193623 -1.6527121 1.0582044 0.00026442128 -0.0010060559 0.077794977 -0.055465259
30503900000 0.086960122 -0.11188701 -1.6131756 1.2130414 0.0016755398 0.00038688121 0.068227485 -0.086077526
30753850000 0.094221763 -0.11060271 -1.4500747 1.2817719 0.0017401075 0.00010776209 0.080034599 -0.10036542
31003800000 0.092452683 -0.106892 -1.4175899 1.4178582 0.0014896638 -0.0010502975 0.090201087 -0.12279306
31253750000 0.082109749 -0.10815403 -1.294099 1.4155051 0.0014460321 0.00084791862 0.11697026 -0.12187827
31503700000 0.082589358 -0.1138062 -1.2618555 1.4969043 0.00024761757 0.00079343113 0.12931037 -0.11214516
31753650000 0.081877142 -0.12316868 -1.1008357 1.4878141 0.00060299825 0.0011405632 0.14447698 -0.093658954
32003600000 0.089755535 -0.13163741 -1.0774561 1.558866 0.0011700318 -0.00063412334 0.12712939 -0.079838015
32253550000 0.1026762 -0.13902111 -0.98200721 1.6113693 0.0017207375 0.0003539013 0.10953124 -0.067302823
32503500000 0.11156522 -0.1403303 -0.91312516 1.7815052 -0.00029813848 -0.0004127404 0.092102945 -0.073309734
32753450000 0.11737297 -0.13557507 -0.68694437 1.7812767 0.0011062616 -0.0015173557 0.075116239 -0.089000523
33003400000 0.11829238 -0.1340182 -0.58989435 1.9374675 0.00098085345 -0.00032850215 0.074243881 -0.11299587
33253350000 0.11502802 -0.13153848 -0.43924609 1.8939135 0.0012275266 -0.0016382657 0.085906997 -0.12612204
33503300000 0.10560197 -0.13868032 -0.37660208 2.0265791 0.0005729649 0.00015241868 0.099207081 -0.13585131
33753250000 0.10738415 -0.1492489 -0.18980651 1.9676398 0.0012912141 0.00029233846 0.10824496 -0.1309903
34003200000 0.10648778 -0.15704733 -0.10220347 2.0521309 0.0018008096 -0.00058345444 0.11451114 -0.11893716
34253150000 0.11517742 -0.16543543 0.068636268 1.9266064 0.0009181393 -0.0003501274 0.11077451 -0.10961444
34503100000 0.12455153 -0.17380519 0.15641926 1.9834453 0.0021458322 -0.0013964609 0.095963009 -0.10858151
34753050000 0.13166498 -0.17191601 0.30039862 1.8674948 0.0011328243 -0.0013058904 0.091209993 -0.11430406
35003000000 0.14193949 -0.16741188 0.45890498 1.9615182 0.00054912944 -0.0017156949 0.085018225 -0.12691198
35252950000 0.13838862 -0.16254708 0.60451198 1.853581 0.00079510087 -0.0012416373 0.096724734 -0.13390099
35502900000 0.13721216 -0.16467579 0.78223342 1.8785943 0.00047854328 -0.0013978509 0.09777388 -0.13957843
35752850000 0.12740661 -0.16858837 0.8212803 1.7251935 -0.00049486815 -0.0012896835 0.1124008 -0.13447039
36002800000 0.12740564 -0.17744842 0.9084416 1.7009753 -0.00081602187 -0.0021529701 0.10834733 -0.12251376
36252750000 0.1253597 -0.18768528 1.029369 1.6674602 0.00015076145 -0.0016866787 0.095317416 -0.1140684
36502700000 0.12764321 -0.19695753 1.1217707 1.5708659 8.7094368e-006 -0.00080450799 0.079897985 -0.11498901
36752650000 0.13286455 -0.20241472 1.2664055 1.4653604 0.00043533416 -0.00080683461 0.062400304 -0.12430131
37002600000 0.13671243 -0.20111813 1.2839345 1.3325367 0.0012348776 -0.002561345 0.062993705 -0.14826098
37252550000 0.13641192 -0.19848351 1.384473 1.3272887 -0.0015812849 -0.0017030677 0.070436031 -0.1716581
37502500000 0.13225017 -0.192793 1.4912153 1.285646 -0.0015176996 -0.0011462858 0.092098825 -0.1853274
37752450000 0.12380835 -0.19292144 1.6462344 1.1832373 -0.00051049958 -0.0021073932 0.11395372 -0.17575461
38002400000 0.1154068 -0.19858178 1.7312908 1.0455598 -0.00058061333 -0.0010574198 0.12424034 -0.15900724
38252350000 0.11235727 -0.20811282 1.7697641 0.87394702 0.00049856788 -0.0023033372 0.12047657 -0.13886337
38502300000 0.11139071 -0.217297 1.8221862 0.7917071 -0.0015330478 -0.00097755005 0.10492003 -0.12419263
38752250000 0.11936001 -0.22513293 1.8836147 0.64236337 -0.0015083861 -0.0015447125 0.082003921 -0.11875553
39002200000 0.12066573 -0.22673966 1.9467971 0.48158741 -0.00059770624 -0.0015073313 0.056432702 -0.13182132
39252150000 0.12289037 -0.22191355 1.9099207 0.27239913 -0.0012160983 -0.0010078538 0.050995797 -0.16117485
39502100000 0.11723828 -0.21909235 1.873843 0.18927677 -0.0013123844 -0.00031338652 0.053572446 -0.18611676
39752050000 0.11386023 -0.21682458 1.8469478 0.055064104 -0.0017694262 -0.0010488053 0.067869142 -0.20285732
40002000000 0.10457256 -0.21431431 1.8468894 0.020668894 -0.00090222864 -0.0021916602 0.092571981 -0.20198332
40251950000 0.098101646 -0.21964668 1.8762498 -0.12064998 -0.00054359902 -0.00030485506 0.10575259 -0.18983355
40501900000 0.091631077 -0.22200403 1.8936933 -0.23237987 0.001032765 -0.0017156766 0.10625868 -0.17071714
40751850000 0.097593233 -0.23253585 1.8244783 -0.40509266 -0.001224466 -0.0018994848 0.091623321 -0.15484041
41001800000 0.10387519 -0.22694695 1.8350787 -0.46610892 -0.0022680967 -0.0024814548 0.064967506 -0.15703191
41251750000 0.10815565 -0.22231375 1.7828531 -0.65563869 -0.0018986691 -0.00071977358 0.052147023 -0.16956282
41501700000 0.11172804 -0.20968756 1.7890003 -0.78456897 -0.001318675 0.00010737452 0.040838771 -0.18578415
41751650000 0.10329384 -0.20043513 1.6960759 -0.95712125 3.9509155e-006 0.00029738509 0.047260456 -0.2095031
42001600000 0.098190002 -0.19597888 1.6068302 -1.0872923 -0.001841735 0.0008307239 0.063737348 -0.2170819
42251550000 0.086030938 -0.19515255 1.4306235 -1.1272148 -0.0016238056 0.00024277838 0.076818302 -0.21647766
42501500000 0.078550883 -0.20318992 1.3963438 -1.1578089 -0.00289708 -0.00014230658 0.087669119 -0.1964055
42751450000 0.072536871 -0.21319568 1.2968532 -1.2290472 -0.0024351547 0.0006696342 0.077976793 -0.18631062
43001400000 0.081369527 -0.22060432 1.2229174 -1.3345152 -0.0017668861 0.0010377407 0.062084299 -0.17286921
43251350000 0.091072351 -0.21880922 1.0823736 -1.2916055 -0.00086110306 0.0012964093 0.041957293 -0.16948889
43501300000 0.096210964 -0.2141134 1.0819783 -1.4351799 0.00046005286 0.0028182296 0.022181034 -0.17986758
43751250000 0.096038997 -0.20254046 0.9709096 -1.4994328 0.0020467455 -0.0024712533 0.024257518 -0.19841745
44001200000 0.0915462 -0.18962705 0.82729805 -1.6717746 0.00025522072 -0.00018945259 0.024457473 -0.21067086
44251150000 0.084893219 -0.18405044 0.77634692 -1.6810216 -0.00022753415 7.0492781e-005 0.038641829 -0.22692057
44501100000 0.074529722 -0.18632811 0.65127778 -1.7969857 -4.824272e-005 -0.00046896795 0.051690672 -0.22286066
