!Agilent Technologies,E8364C,MY43040239,A.09.42.22
!Agilent E8364C: A.09.42.22
!Date: Sunday, September 14, 2025 22:29:09
!Correction: S11(Full 2 Port(1,2)) 
!S21(Full 2 Port(1,2)) 
!S12(Full 2 Port(1,2)) 
!S22(Full 2 Port(1,2)) 
!S2P File: Measurements: S11, S21, S12, S22:
# Hz S  RI   R 50
10000000 0.062849291 0.002556599 -0.6015259 -0.026535431 -0.00046872778 0.0087542431 0.32746023 -0.031700972
259950000 0.063593984 0.0051664333 -0.76212716 -0.10592408 -0.00062824937 -0.00076449354 0.094148435 -0.20809032
509900000 0.066558421 0.0099117476 -0.90240049 0.11208028 0.00011369171 6.855488e-005 -0.056789804 0.038107868
759850000 0.070769317 0.013382759 -0.89009666 0.13310164 0.00064888917 -0.0001256612 -0.029051907 0.010024982
1009800000 0.073135875 0.016536674 -0.8841877 0.1822508 0.00022375221 0.00012952302 -0.024715014 0.0076140645
1259750000 0.076046184 0.018296499 -0.87498409 0.23348172 0.0002382841 -2.4984622e-005 -0.025597461 0.0063511822
1509700000 0.079357937 0.019204414 -0.86823779 0.28041184 -0.00010308486 0.00021760752 -0.023579849 0.0072933258
1759650000 0.082540855 0.020305593 -0.84719121 0.32921788 -2.6979527e-005 -0.0003480844 -0.023494136 0.0080796173
2009600000 0.085941225 0.021085199 -0.828219 0.37543064 7.2151619e-005 -0.00024190922 -0.022844031 0.0089434609
2259550000 0.089173794 0.022774382 -0.80478603 0.42320856 0.00073111994 0.0003069989 -0.022205302 0.0097362101
2509500000 0.093021348 0.02185126 -0.77983886 0.46667758 -0.00017907764 0.00025743514 -0.021374265 0.0087364111
2759450000 0.095471285 0.022435563 -0.75464278 0.50940782 -7.924017e-005 0.00034882405 -0.020501507 0.01032877
3009400000 0.10022137 0.023905804 -0.7240147 0.54900986 -0.00039981 -7.428402e-005 -0.021507677 0.010243366
3259350000 0.10316011 0.022399575 -0.69312257 0.58586931 -0.00018598013 -0.00014168071 -0.021006297 0.010597677
3509300000 0.10747229 0.023707075 -0.65039712 0.63267958 4.5006971e-005 4.2115986e-005 -0.022165356 0.012466757
3759250000 0.11111846 0.017575143 -0.60911936 0.65034193 -0.00018553404 -0.00030615943 -0.022090869 0.01785774
4009200000 0.11641373 0.02094222 -0.56704515 0.68626291 5.1188606e-005 0.00048218144 -0.018081557 0.018298833
4259150000 0.11587331 0.018239742 -0.54416859 0.71399105 -0.00026867003 -0.00013007908 -0.017744126 0.018224208
4509100000 0.12348932 0.018919747 -0.50186998 0.74020547 -0.00015745178 7.2485578e-005 -0.015835587 0.017607104
4759050000 0.12690906 0.016343113 -0.46040303 0.75866634 0.00028758222 0.00043894851 -0.015462245 0.017690787
5009000000 0.13043906 0.014857614 -0.42131323 0.79092795 5.3757722e-006 0.00010390619 -0.014299217 0.017763207
5258950000 0.13636652 0.010111303 -0.3652544 0.79265058 -0.00014314726 0.00011610785 -0.01315059 0.017678406
5508900000 0.13682416 0.0090910047 -0.33636844 0.82373333 -0.00014856119 -0.00021574758 -0.012313103 0.018653706
5758850000 0.14488196 0.0038633484 -0.27048519 0.82460833 8.7407469e-005 0.00010201194 -0.01110209 0.018877771
6008800000 0.14653821 0.0026207755 -0.23516661 0.84357673 0.00016605867 9.7254058e-005 -0.010479312 0.020134183
6258750000 0.15095021 -0.00025032033 -0.19239543 0.85267389 -0.00013234152 -0.0004541672 -0.010122998 0.020404182
6508700000 0.15635835 -0.0013618787 -0.14902769 0.87205774 -5.9790586e-006 4.1095784e-005 -0.0091577312 0.020105526
6758650000 0.15931644 -0.0092779296 -0.11601028 0.85082787 3.6510766e-005 -8.0575301e-005 -0.0082046874 0.020562615
7008600000 0.16525412 -0.010157397 -0.053360283 0.87670106 0.00023062847 9.3747498e-005 -0.00789712 0.020223456
7258550000 0.16643055 -0.016234012 -0.02663211 0.8443166 0.00033787967 -1.9435347e-005 -0.0052208081 0.020783445
7508500000 0.17177439 -0.018255236 0.025100574 0.87705874 -0.0001005583 -6.7001296e-005 -0.005625207 0.021267548
7758450000 0.17539889 -0.025140131 0.076133147 0.84881902 -0.00013970569 -0.00036067958 -0.0041723792 0.020866873
8008400000 0.17593154 -0.030173965 0.091490947 0.85631686 -2.1906528e-005 -0.00043009076 -0.0028512022 0.02268504
8258350000 0.18092982 -0.037823774 0.14938629 0.82261258 0.0003209688 -0.0005894666 -0.0016196835 0.021552162
8508300000 0.18250577 -0.041882917 0.16894077 0.84324461 0.00018321694 0.00021517806 -0.00085568597 0.02278764
8758250000 0.18784595 -0.051013775 0.23139998 0.80312848 -3.2179985e-005 -0.00028260981 -0.0011248989 0.023008754
9008200000 0.18851458 -0.05233188 0.24713336 0.81696212 -0.00011591155 -8.5281841e-005 -0.00014173423 0.023179553
9258150000 0.19246037 -0.061576948 0.31085768 0.78999901 4.799115e-005 -0.00023952565 0.0021651285 0.022411449
9508100000 0.19088796 -0.066638865 0.31167629 0.79683959 0.00013705932 0.00047653166 0.0043153898 0.021608368
9758050000 0.19692729 -0.074310474 0.38072774 0.76692545 -0.00048943283 0.00031400973 0.006728468 0.021322818
10008000000 0.1942704 -0.081341401 0.39640281 0.7542091 0.00010006083 -0.00024200401 0.0077428077 0.022848777
10257950000 0.19378133 -0.091250584 0.41864398 0.73146749 -0.00029663759 0.00023878344 0.0077956882 0.022797903
10507900000 0.20054188 -0.095419623 0.48623523 0.72156 -8.3653984e-005 -0.00025798031 0.0089055337 0.022429574
10757850000 0.19531496 -0.10401126 0.48699731 0.69077384 7.5951459e-005 -5.7511195e-005 0.0097792875 0.022580808
11007800000 0.1984069 -0.10945898 0.55860043 0.67384094 -5.239026e-005 3.4011393e-008 0.011779612 0.023658177
11257750000 0.19557254 -0.11882509 0.56100869 0.64672822 0.00039061281 0.00017893506 0.01160595 0.021850716
11507700000 0.19661404 -0.12379844 0.62384081 0.63678753 0.00027397985 0.00031885863 0.013144369 0.022466511
11757650000 0.19187325 -0.13095072 0.62805212 0.60740131 -0.00036632607 -8.1349834e-005 0.01643309 0.022360334
12007600000 0.19050886 -0.13702668 0.67709559 0.59159964 0.00050610374 -0.00018518799 0.018705819 0.022072896
12257550000 0.18720701 -0.14565328 0.69397682 0.55264533 0.00059942907 -2.7914053e-005 0.019997561 0.022252353
12507500000 0.18770829 -0.15290372 0.75212389 0.51659906 6.575684e-006 -9.2836592e-005 0.02045718 0.022739414
12757450000 0.18475573 -0.16187382 0.7488991 0.4799642 -0.00053076196 -0.0004773656 0.021465154 0.021627175
13007400000 0.18425316 -0.16532092 0.80800074 0.44712126 0.00040714917 -0.00014773865 0.022650544 0.021786448
13257350000 0.17891115 -0.17313302 0.8099519 0.39625078 -0.00044298696 -0.00038496702 0.022312297 0.01968516
13507300000 0.17718127 -0.17533924 0.86238986 0.36871502 0.00024116792 1.2868603e-005 0.02377202 0.020291351
13757250000 0.16841722 -0.18404289 0.86582333 0.32302362 0.00026657735 -0.00020473536 0.025549704 0.017701581
14007200000 0.16602539 -0.18689524 0.91189271 0.29631275 0.00017609596 -0.00011618424 0.028813025 0.019204114
14257150000 0.15800343 -0.19586134 0.91193157 0.25117159 -9.5059251e-005 -0.00027410092 0.030155843 0.017728765
14507100000 0.15989345 -0.1990031 0.95862049 0.21305542 -0.00039760972 7.41896e-005 0.03283025 0.019533008
14757050000 0.15093496 -0.20884991 0.95420718 0.17659633 7.4851123e-005 -0.00047067768 0.033268355 0.018232906
15007000000 0.15360206 -0.21407741 0.99761164 0.12098474 -8.9674439e-005 4.9953749e-005 0.032686166 0.019057028
15256950000 0.14501107 -0.21633838 0.9962045 0.06538 -0.00020642798 -1.4116183e-005 0.033966336 0.018430263
15506900000 0.14108537 -0.21617393 1.0109231 0.0085693086 -0.00030610189 9.1550814e-005 0.0356411 0.016854562
15756850000 0.1310346 -0.22342278 1.0048822 -0.062523507 -0.00040350982 -0.00025763453 0.037681635 0.012583558
16006800000 0.12586361 -0.22435728 1.0130929 -0.12900148 -0.00050251791 0.00030657224 0.040159669 0.01169315
16256750000 0.11835682 -0.22832479 1.0124642 -0.18078592 -0.00075073686 -0.00051400188 0.04598913 0.012432509
16506700000 0.11108297 -0.23004621 1.0150425 -0.22255975 0.00018025839 -0.00025290964 0.044836897 0.01446087
16756650000 0.10815576 -0.23809469 1.0206186 -0.28324103 -0.00067692407 0.00019886719 0.046464205 0.014139705
17006600000 0.10056911 -0.23632193 1.0145296 -0.31695822 -0.00046628795 -0.00018881804 0.045825478 0.015806196
17256550000 0.097783603 -0.24229677 1.0004297 -0.38738179 -0.00048011501 0.00039746193 0.045193814 0.012109413
17506500000 0.090944268 -0.23724206 0.98100102 -0.42529264 -0.0006968563 7.7380653e-005 0.045233127 0.011236379
17756450000 0.086919814 -0.23933886 0.96064115 -0.50091797 -0.00042153115 0.00058384053 0.046739519 0.0056835534
18006400000 0.078181118 -0.23724683 0.94357014 -0.56592286 -0.00044827876 -0.00023549069 0.04975589 0.0035582506
18256350000 0.071243986 -0.23947667 0.90589905 -0.63430536 -1.2740144e-005 0.00017542644 0.05509147 0.0027543888
18506300000 0.066661723 -0.23672993 0.87802845 -0.69273859 -0.00051692693 -0.00020283728 0.055865943 0.0050734319
18756250000 0.060090035 -0.24320059 0.85594302 -0.74499387 -0.0004330308 -0.00029141491 0.058913413 0.0063755922
19006200000 0.057272945 -0.24102327 0.8262375 -0.81067216 -0.00021314957 -0.00038403095 0.056926977 0.0069506317
19256150000 0.050662365 -0.24655622 0.79389876 -0.85640115 -0.00094538269 0.00078982138 0.056555331 0.005377159
19506100000 0.053954903 -0.23671885 0.74047387 -0.90153104 -0.00083045638 0.00081987749 0.055456772 0.0030527145
19756050000 0.04388155 -0.23901552 0.7025426 -0.94327265 -0.00090788736 -9.1964961e-005 0.058682472 -0.0033091358
20006000000 0.041269138 -0.23332047 0.63215905 -0.97319388 0.0012191171 -0.00037828946 0.055826001 -0.0083653182
20255950000 0.033293705 -0.23335974 0.59498608 -1.0080756 -0.00098001387 0.00067035528 0.062101111 -0.0099491244
20505900000 0.023874182 -0.22806141 0.52882951 -1.0624777 -0.0008621937 0.00092289265 0.070335485 -0.0081991991
20755850000 0.025273459 -0.23062368 0.48019841 -1.1241337 0.00061663479 0.00041790865 0.069077909 -0.0034789576
21005800000 0.015727092 -0.23003887 0.39470398 -1.1643453 0.0024951135 0.0011254584 0.072934866 -0.0037339956
21255750000 0.020392718 -0.2319518 0.32641295 -1.1978313 -0.0002956762 0.001203318 0.070406981 -0.00074629422
21505700000 0.0081908498 -0.22620969 0.26330125 -1.2241833 -0.00017592515 0.00012595141 0.062436327 -0.0022244037
21755650000 0.014649892 -0.22418398 0.21191308 -1.2474686 -0.00026705998 0.00071627082 0.059202399 -0.0063627763
22005600000 0.0089008547 -0.21879007 0.13816674 -1.2694408 0.00095753145 0.0017073377 0.065532282 -0.017375091
22255550000 0.0081621967 -0.2110168 0.065090083 -1.2635001 0.0007604878 -0.0016795051 0.069737993 -0.017456725
22505500000 -2.8516095e-005 -0.20616105 -0.014453257 -1.2613436 -0.00053376961 0.00085109822 0.075848214 -0.018631017
22755450000 -0.0042479536 -0.20637594 -0.076492019 -1.2613168 0.00027703308 -0.00067923457 0.079449497 -0.015760308
23005400000 -0.0048950417 -0.20695671 -0.15897813 -1.2770172 -0.00051640579 1.807845e-005 0.082111426 -0.015226795
23255350000 -0.01061468 -0.2026758 -0.24220154 -1.2930931 0.0012248099 0.00069286278 0.078374803 -0.011820315
23505300000 -0.0061800107 -0.20629755 -0.3478806 -1.2791322 -8.3950152e-005 0.00023417415 0.076160647 -0.01316524
23755250000 -0.0039328421 -0.19723205 -0.42540863 -1.3031387 -0.0012257949 0.0013260035 0.07557743 -0.021006767
24005200000 -0.005205282 -0.19344194 -0.51518112 -1.2541596 7.2964496e-005 0.0010352478 0.075503804 -0.028511526
24255150000 -0.0054319459 -0.18006669 -0.57064283 -1.2575356 -0.00039687258 0.00067760819 0.078748442 -0.035469592
24505100000 -0.010059888 -0.18136962 -0.65989769 -1.1969025 0.00017987717 -0.00064571435 0.088780671 -0.037591226
24755050000 -0.0095704086 -0.17288926 -0.73298621 -1.1796217 5.9075519e-005 -0.00054801558 0.094631881 -0.035854865
25005000000 -0.016743267 -0.1736832 -0.78404641 -1.087672 0.0011490408 0.00014292957 0.099515758 -0.026189124
25254950000 -0.013097968 -0.16916257 -0.82476896 -1.06592 -0.00012661923 0.00047525016 0.098869935 -0.024023548
25504900000 -0.012536545 -0.17207482 -0.91800809 -0.99579942 -0.00093028089 0.00091110519 0.092363708 -0.022496702
25754850000 -0.0079645887 -0.17408139 -1.0133773 -0.96457833 -0.00064988225 0.00056260329 0.081560507 -0.025497194
26004800000 -0.002073806 -0.16144259 -1.0511551 -0.93262845 0.00099016703 -6.3764121e-005 0.081079543 -0.037519056
26254750000 0.00020602756 -0.15451328 -1.1661069 -0.8605175 0.0008843338 -0.00041347032 0.082373045 -0.045999225
26504700000 -0.00039914605 -0.14233126 -1.1975049 -0.8411929 -0.00026588727 0.00012400751 0.08770711 -0.055615857
26754650000 -0.0029559531 -0.14306307 -1.2948922 -0.75940287 0.0017385802 -0.00044139021 0.099418364 -0.057972834
27004600000 -0.0060721342 -0.13834815 -1.31134 -0.70034796 -0.001126856 -0.00070955313 0.11299194 -0.058763124
27254550000 -0.0083882427 -0.14243259 -1.3904606 -0.56748277 0.00053042069 0.00089380908 0.11188382 -0.044008259
27504500000 -0.0060192696 -0.14274986 -1.3633032 -0.49578407 0.00050358108 -0.00010011876 0.11141506 -0.039029747
27754450000 0.0034331391 -0.14411664 -1.3995755 -0.35683438 -0.0012699877 -6.0678401e-005 0.092061989 -0.027265295
28004400000 0.0097800298 -0.13906862 -1.4077084 -0.3168245 0.0026358399 0.0012855915 0.081916042 -0.041327927
28254350000 0.016236339 -0.13519193 -1.4429531 -0.19727579 0.001484044 -0.00053564884 0.076583065 -0.051562674
28504300000 0.019679198 -0.12551466 -1.5126437 -0.16450316 -0.00089245057 -0.00019941448 0.08322259 -0.070333794
28754250000 0.020184387 -0.11912369 -1.5377411 -0.031507783 -0.00026291734 -0.00064371026 0.093823761 -0.078788772
29004200000 0.018172873 -0.11190455 -1.5505463 -0.023598555 0.0017456716 0.0020704854 0.10842763 -0.087088488
29254150000 0.014695724 -0.11842158 -1.5760413 0.11947367 0.00039457591 -0.00025065726 0.12307553 -0.076435119
29504100000 0.023045441 -0.11634695 -1.5927019 0.18153827 0.00061701878 -0.00016723167 0.12372927 -0.061732136
29754050000 0.022192512 -0.12439308 -1.5533091 0.3704944 7.67807e-005 -0.0017373898 0.11623798 -0.046915576
30004000000 0.03880161 -0.12261494 -1.5338808 0.47453502 0.0010321632 0.00098395103 0.096293263 -0.046949729
30253950000 0.050527439 -0.1205871 -1.4859701 0.64056349 0.00055192626 0.00033914854 0.08301869 -0.056347288
30503900000 0.063083388 -0.11369666 -1.4588513 0.71606195 0.001268659 -0.00060819916 0.065389298 -0.079598784
30753850000 0.063274689 -0.10545614 -1.3516905 0.84585595 0.00087870937 0.00011522749 0.07967478 -0.10332397
31003800000 0.064835548 -0.10633612 -1.3419949 0.90184516 0.001093206 -0.000118478 0.09193936 -0.11823308
31253750000 0.055875689 -0.10167903 -1.272239 0.97879922 0.0012413049 0.001550691 0.12063903 -0.12260009
31503700000 0.057241157 -0.1059967 -1.2444098 0.99911714 0.0007856476 -0.0012677669 0.1317485 -0.11081976
31753650000 0.059932403 -0.11294232 -1.1366552 1.0770264 0.00015165863 0.00029220755 0.143692 -0.092139065
32003600000 0.065316536 -0.11827268 -1.1277806 1.1099247 0.001122653 -0.00048153044 0.12956201 -0.078629985
32253550000 0.078982525 -0.12551644 -1.065989 1.1886088 0.0010760081 -0.00097377686 0.11155227 -0.066437691
32503500000 0.08992029 -0.12211211 -1.0244559 1.3038133 0.0015902746 -0.00091276463 0.090958968 -0.069129571
32753450000 0.097037025 -0.11741673 -0.85517764 1.3950294 0.00092791638 -0.00064447714 0.077083595 -0.086501747
33003400000 0.10281932 -0.11258701 -0.8028546 1.4849921 0.0013310185 0.0004366716 0.075858429 -0.10919049
33253350000 0.096082613 -0.10788792 -0.67974699 1.5373316 0.00025795202 0.0014744309 0.086740278 -0.12430225
33503300000 0.09545397 -0.11441622 -0.62696308 1.6121101 0.0020192654 0.00097270956 0.099548154 -0.13335273
33753250000 0.092615701 -0.12228201 -0.48738459 1.6440678 0.0010344479 -0.0010355463 0.11367217 -0.12741552
34003200000 0.098491579 -0.13477461 -0.41990641 1.6882458 0.00057692005 -0.00060360046 0.11634515 -0.11497493
34253150000 0.10813086 -0.1393389 -0.24890545 1.6753042 0.00096991943 -0.0012242803 0.11409412 -0.10780457
34503100000 0.1195814 -0.15267839 -0.18525398 1.6732538 0.0010270623 0.0002222718 0.098584123 -0.1073757
34753050000 0.13041131 -0.14363822 -0.033737842 1.6659652 0.0012169944 -0.0021387464 0.094354682 -0.11481424
35003000000 0.13692833 -0.14398606 0.06135248 1.7151877 0.00053989899 -0.0017568378 0.087110974 -0.12577544
35252950000 0.14525731 -0.13415109 0.24010506 1.7134527 0.0010666981 -0.0026079963 0.099549867 -0.13553323
35502900000 0.13657112 -0.13878572 0.35740304 1.7052186 -0.001074795 -0.0022008598 0.099984102 -0.14050591
35752850000 0.13776499 -0.14473931 0.45395017 1.6385194 -0.00077277003 -0.0010170481 0.11479042 -0.13592447
36002800000 0.13371782 -0.15396594 0.51128888 1.6156493 5.3099284e-005 -0.0010270997 0.10983709 -0.1220071
36252750000 0.13167517 -0.16409688 0.59915096 1.5974319 0.0012140648 -0.0014357505 0.097486235 -0.11147546
36502700000 0.13800159 -0.17531662 0.73881614 1.561473 -0.00055981998 -0.0015764319 0.084925145 -0.11460172
36752650000 0.14184758 -0.18081239 0.86087894 1.4503995 -0.00063635199 -0.00064627221 0.064575881 -0.12578754
37002600000 0.15009628 -0.18185 0.90728772 1.3871791 -0.00052542723 0.0012785186 0.065910175 -0.15076438
37252550000 0.1482977 -0.1801753 0.97652 1.3619416 0.00092939165 -0.0016628216 0.073018119 -0.17149176
37502500000 0.14776839 -0.17691708 1.1206893 1.376 0.0014088295 -0.00089223991 0.096810959 -0.18608651
37752450000 0.13815308 -0.17684057 1.2265564 1.274485 -0.00093190081 -0.0015047431 0.11546458 -0.17492586
38002400000 0.13245201 -0.1824352 1.3748391 1.2126805 0.00061459071 -0.002465952 0.12594324 -0.15635324
38252350000 0.12716842 -0.19654691 1.3962138 1.0213149 -0.0017366308 -0.001306837 0.12190043 -0.13695198
38502300000 0.12713753 -0.20286047 1.4535892 0.98842907 -0.00059593742 -0.0012070221 0.10773006 -0.12202871
38752250000 0.13721672 -0.2177278 1.5648878 0.84001207 -0.0018235036 -0.00030452883 0.086178906 -0.12333578
39002200000 0.13844621 -0.2140781 1.6283681 0.74805254 -0.00045932524 -0.0014621498 0.062012564 -0.13282464
39252150000 0.13935719 -0.21815135 1.6516918 0.51379967 -0.0013914963 -0.00078987813 0.052568998 -0.16518034
39502100000 0.13941032 -0.21083024 1.6079379 0.46593291 -0.0015752066 0.00053239946 0.057488855 -0.18513854
39752050000 0.12904368 -0.21569678 1.651049 0.30400756 -0.00056211697 0.00066437101 0.068960652 -0.2070277
40002000000 0.12319352 -0.21199518 1.6305331 0.30539614 0.00028579164 0.00051029021 0.095198222 -0.20297907
40251950000 0.11196601 -0.21666396 1.6705774 0.16336206 -0.00095780729 -0.0015288995 0.10879346 -0.19013581
40501900000 0.11415729 -0.22595605 1.7262255 0.092460915 -0.00052484125 -0.00025381235 0.10887218 -0.17474772
40751850000 0.11323733 -0.22925024 1.6813666 -0.10205233 -0.0014089877 -1.2787331e-005 0.092055298 -0.15751804
41001800000 0.12368242 -0.23334296 1.7014842 -0.11691166 -0.0031164982 -0.0015857434 0.071221806 -0.15851896
41251750000 0.12411629 -0.22091736 1.6838593 -0.34267801 -0.00050355506 -0.00088836171 0.051363446 -0.17145929
41501700000 0.12993416 -0.21465598 1.7076796 -0.40737015 -0.0020796994 -0.0010700409 0.046530034 -0.18990494
41751650000 0.12049907 -0.20432539 1.6440176 -0.63077116 -0.0011873819 -0.0017238989 0.045389902 -0.21001671
42001600000 0.1151956 -0.20254806 1.594673 -0.70025545 -0.0019291671 -0.00089420151 0.067725554 -0.22290166
42251550000 0.10097823 -0.20094673 1.4364823 -0.81922299 -0.0030533443 5.9566861e-005 0.075818636 -0.21761011
42501500000 0.097752579 -0.21054247 1.4091256 -0.79978299 -0.0022786048 0.0017364704 0.09068723 -0.20081177
42751450000 0.085939385 -0.21986565 1.3398356 -0.93500441 -0.00062765507 -0.00070778496 0.0772314 -0.18806876
43001400000 0.09913031 -0.23332691 1.2868894 -0.97574162 -0.00071420328 -0.00080423069 0.066983707 -0.17757408
43251350000 0.10235947 -0.22810701 1.1423036 -1.0219229 -0.00083105866 0.0017275761 0.043526862 -0.17207529
43501300000 0.110314 -0.22780998 1.1811899 -1.0973331 0.0023543632 -0.00037259381 0.027793352 -0.18458252
43751250000 0.10970178 -0.21124463 1.0635453 -1.2051824 -0.0014186091 0.002256535 0.023892051 -0.20653139
44001200000 0.099185765 -0.20356503 1.00194 -1.3519616 -0.001011646 2.4468789e-005 0.02834693 -0.21858121
44251150000 0.096281111 -0.19541968 0.90746015 -1.3924959 -0.0012583269 0.0027165951 0.033536594 -0.22619253
