!Agilent Technologies,E8364C,MY43040239,A.09.42.22
!Agilent E8364C: A.09.42.22
!Date: Sunday, September 14, 2025 22:27:32
!Correction: S11(Full 2 Port(1,2)) 
!S21(Full 2 Port(1,2)) 
!S12(Full 2 Port(1,2)) 
!S22(Full 2 Port(1,2)) 
!S2P File: Measurements: S11, S21, S12, S22:
# Hz S  RI   R 50
10000000 0.063637801 -0.0023052734 -0.44386682 -0.010440371 -0.00021466785 0.001663585 0.27270231 -0.021728439
259950000 0.064599425 0.0050313426 -0.51955396 -0.039055083 6.4821776e-005 -0.00031329977 0.071769178 -0.16737567
509900000 0.066317715 0.010029226 -0.60784626 0.072461829 0.00049630634 0.00037890521 -0.058250397 0.033043489
759850000 0.069906205 0.012743804 -0.59782815 0.089111142 -0.00012083076 -0.00029206174 -0.03101185 0.0097086439
1009800000 0.073307887 0.015850034 -0.59770179 0.12301959 5.8026755e-005 0.00018818364 -0.027121484 0.0076554762
1259750000 0.075451843 0.01788668 -0.58954799 0.15471634 0.00014070875 0.00047751493 -0.028221581 0.0068858992
1509700000 0.078412086 0.018575219 -0.58215803 0.1876979 0.00015022738 -3.0599807e-005 -0.02652063 0.0067890109
1759650000 0.081476949 0.019311234 -0.56969756 0.2218658 0.00015167981 0.00040811353 -0.025807759 0.0086837607
2009600000 0.084492587 0.020292219 -0.55643928 0.2525568 -0.00011358008 -0.00014057021 -0.026176803 0.0095276674
2259550000 0.087885246 0.020533565 -0.53979021 0.28373384 0.00053941994 5.9090362e-005 -0.024715703 0.0096287522
2509500000 0.092508078 0.021044543 -0.52484745 0.31512031 -3.1579875e-005 0.00025790249 -0.023684496 0.010498718
2759450000 0.094211496 0.021625664 -0.50695229 0.34185156 0.0002314092 -0.00039002 -0.023246959 0.011743833
3009400000 0.097565532 0.021506546 -0.4877086 0.36928868 -0.00015218456 -0.0006776026 -0.023557888 0.010899035
3259350000 0.1000886 0.020714736 -0.45864281 0.39900342 0.00039078956 -0.00022123264 -0.023811642 0.011089043
3509300000 0.10700843 0.020538002 -0.44599387 0.42003229 0.0002583426 -0.00018191137 -0.024185104 0.012554423
3759250000 0.10688449 0.01811002 -0.40108868 0.44570896 -2.6262285e-006 0.00015983205 -0.025939796 0.018534854
4009200000 0.11207282 0.017591972 -0.39054999 0.47030216 -5.1709183e-005 0.00029802107 -0.020825818 0.017512634
4259150000 0.11622541 0.017717751 -0.36281529 0.47197655 5.0713174e-005 -0.00027268747 -0.020272648 0.018650731
4509100000 0.1195943 0.015565732 -0.33769411 0.49810204 -0.00014891065 -0.0001312469 -0.018820746 0.018399034
4759050000 0.12389959 0.013692098 -0.31005034 0.51256257 -0.00062445895 0.00012816889 -0.017693324 0.018668042
5009000000 0.12926605 0.014092072 -0.28562865 0.5224154 9.8701683e-005 -5.2956897e-005 -0.01690986 0.018503608
5258950000 0.13144779 0.0087349899 -0.25432113 0.54589534 -0.00016094056 -0.00016581315 -0.016297143 0.018491423
5508900000 0.1355484 0.0096859504 -0.2261059 0.54429179 0.00021311759 5.5306286e-005 -0.014848287 0.019576099
5758850000 0.13768232 0.0016178017 -0.19204144 0.56456912 0.00022641553 4.8442631e-005 -0.013498981 0.019634867
6008800000 0.14150174 0.00030550119 -0.15778396 0.56968683 0.00010861258 0.00025891603 -0.01335148 0.021343928
6258750000 0.14610703 -0.0018244889 -0.12962814 0.57707888 9.9397868e-005 -0.00017264803 -0.013216414 0.022431456
6508700000 0.15285321 -0.0055883648 -0.1047344 0.58209664 0.00048116036 8.6802698e-005 -0.011310942 0.021122603
6758650000 0.15297267 -0.0074384483 -0.070529692 0.5880124 1.9440153e-005 0.00011003348 -0.011011653 0.022163229
7008600000 0.16026109 -0.014363305 -0.040351186 0.58585215 0.00018369507 -0.00013464908 -0.0090478305 0.021474347
7258550000 0.15949284 -0.013602593 -0.011803428 0.58423471 -0.00031366362 0.00032644192 -0.0087188631 0.02271397
7508500000 0.1661628 -0.023083625 0.01421728 0.58021796 0.00044329229 -0.00019429304 -0.0071907425 0.022756239
7758450000 0.16549371 -0.02724614 0.042854141 0.57461417 -0.00010127955 0.00026250441 -0.0068897777 0.023130422
8008400000 0.1728074 -0.031589359 0.073233269 0.57417113 8.1523103e-005 -1.1964267e-005 -0.0048628254 0.022905532
8258350000 0.17088364 -0.035814721 0.098883949 0.56511152 6.8976413e-005 0.00019256775 -0.0046149073 0.023731347
8508300000 0.17884268 -0.042709604 0.12589437 0.56352943 -0.00024438795 -4.2746702e-005 -0.0032354246 0.024611009
8758250000 0.17723672 -0.048073657 0.15592423 0.55198795 0.00038371814 9.9402758e-005 -0.0028935126 0.025028978
9008200000 0.18519083 -0.051852938 0.18199906 0.55195451 0.00020064396 -7.082284e-005 -0.0022984913 0.024791859
9258150000 0.18054341 -0.060092822 0.20663562 0.53557724 0.00026076435 0.00023986251 -5.6797839e-005 0.024507053
9508100000 0.18633576 -0.063256465 0.22925155 0.53612578 0.00052359904 3.2094445e-005 0.0025579582 0.023508588
9758050000 0.18122277 -0.072533034 0.25367802 0.5167917 -3.9385624e-005 -2.0887717e-005 0.0039979471 0.023200225
10008000000 0.18583255 -0.076800257 0.27482626 0.50593668 0.00024314485 -0.00033486899 0.0051255175 0.024807418
10257950000 0.18646431 -0.082998954 0.29803246 0.49797258 -0.00013728485 1.7850485e-005 0.0063145794 0.024720045
10507900000 0.18904005 -0.095103078 0.32837424 0.47333983 0.00030524851 -0.00013524071 0.0068967729 0.023860611
10757850000 0.18857339 -0.094748355 0.34458867 0.46828467 0.00023780612 -0.00028449425 0.0089478325 0.026075268
11007800000 0.18908413 -0.10743441 0.3781451 0.43892473 -0.000236607 0.00017293995 0.0085709831 0.024481069
11257750000 0.18767844 -0.10787198 0.39060533 0.43818298 0.00016681341 -0.00016983371 0.010226325 0.024975708
11507700000 0.1876881 -0.1203952 0.42610011 0.41221339 0.00018405831 -0.00062270294 0.010950414 0.024650561
11757650000 0.18559086 -0.11852277 0.43439648 0.4119994 0.000137574 -0.00044253864 0.013482042 0.024862435
12007600000 0.18309428 -0.1284871 0.46278256 0.3864744 0.00021566989 -4.2959044e-005 0.016389148 0.024120258
12257550000 0.18254267 -0.13439624 0.47912866 0.36894846 -0.00014932943 -0.00026870123 0.018145517 0.02470693
12507500000 0.17757021 -0.1455164 0.50176704 0.32801592 0.00018181169 -0.00026689688 0.017315792 0.024533963
12757450000 0.18109308 -0.1492565 0.5141809 0.31912631 0.00010176037 -0.00041636027 0.021280747 0.025786832
13007400000 0.17552131 -0.15692812 0.53905356 0.27601716 0.00017249718 -0.00056635914 0.019147297 0.023382006
13257350000 0.17549786 -0.1593007 0.54989034 0.26199573 -0.00018019187 -0.00035895038 0.021397403 0.024162492
13507300000 0.16980219 -0.16644368 0.57375336 0.22093497 0.00033509859 -0.00044757384 0.021480912 0.02036497
13757250000 0.16722591 -0.16749275 0.58177656 0.2106027 -0.00055575388 -0.00079110992 0.025651669 0.020975038
14007200000 0.15941951 -0.17828068 0.60705477 0.17088352 -8.0922444e-005 -0.00024422733 0.02588826 0.020157065
14257150000 0.15896566 -0.1811351 0.61238414 0.16259843 -0.00027154101 -0.00016838976 0.029263709 0.020012597
14507100000 0.15329197 -0.18923698 0.6310302 0.11618382 -0.0003902546 -2.3360086e-005 0.030945251 0.02116554
14757050000 0.15215877 -0.19222033 0.63757676 0.11075833 -0.0003277736 -9.5691539e-005 0.032351285 0.021245025
15007000000 0.14537476 -0.20225056 0.65137523 0.051172853 -0.00060883508 -0.00014155619 0.0324305 0.019393388
15256950000 0.1451416 -0.20287564 0.65753263 0.028367497 -0.00023402071 -0.00013209002 0.032998294 0.021400319
15506900000 0.14162545 -0.20663352 0.67008531 -0.017514415 -8.275592e-005 0.00030082982 0.035062537 0.017454248
15756850000 0.13411684 -0.20377621 0.65574861 -0.044736404 -0.0001780188 -0.00040734094 0.0355368 0.017148882
16006800000 0.127057 -0.2099487 0.6624831 -0.098574921 -0.0002934298 0.00027918784 0.040086016 0.014517496
16256750000 0.11811021 -0.21222271 0.65073156 -0.13311855 -0.00045931351 -0.00028229115 0.042058803 0.016613396
16506700000 0.11613991 -0.21900809 0.67079026 -0.16184226 -0.00063604611 -0.0002804338 0.043152235 0.015731443
16756650000 0.11037014 -0.2209167 0.65094864 -0.19815177 -0.00032398329 -0.00043895189 0.045398809 0.019282568
17006600000 0.10821798 -0.22440468 0.67020613 -0.22229865 -0.0004310252 0.00073037238 0.045014847 0.016735503
17256550000 0.10138416 -0.22649175 0.63531655 -0.26296389 -0.00017482511 0.00014293101 0.0442046 0.016187318
17506500000 0.09960746 -0.22436816 0.64728534 -0.28810439 -0.00028806034 -0.00062250876 0.045076195 0.014580001
17756450000 0.091514647 -0.22444189 0.60678458 -0.33544895 -0.00046815921 -0.00039752253 0.04466404 0.0095732026
18006400000 0.087731048 -0.22603995 0.61725992 -0.37301677 -0.00049887504 -0.00021718691 0.049446281 0.0071979142
18256350000 0.078510925 -0.22406264 0.57263911 -0.42196688 0.00011025799 0.00016765932 0.052712448 0.0059565934
18506300000 0.077238716 -0.22781935 0.5754649 -0.4532479 -0.00022977937 -0.00031181067 0.0563077 0.0067338659
18756250000 0.06876801 -0.22828817 0.5341484 -0.49259502 0.00012904941 0.00053345173 0.056384113 0.0096726054
19006200000 0.068370178 -0.23243725 0.53834081 -0.5296638 -0.00073157088 -3.2831507e-005 0.058114253 0.0083138999
19256150000 0.062061232 -0.23178859 0.49532586 -0.5628143 -0.00042951552 0.00036266728 0.053658333 0.0092133163
19506100000 0.06496606 -0.22980776 0.48475775 -0.58735418 -0.00076043425 6.5819389e-005 0.055454172 0.0038780794
19756050000 0.057484172 -0.2244515 0.43149996 -0.60922295 -0.00024075007 0.00067426357 0.056673337 0.0026953307
20006000000 0.05461004 -0.22148706 0.40178195 -0.62747294 0.00053483795 0.0021438431 0.060253099 -0.0028417474
20255950000 0.048050094 -0.22520034 0.38258347 -0.65016615 0.00034343594 0.00080631132 0.064223297 -0.0044036144
20505900000 0.039883915 -0.21961787 0.33125466 -0.68289626 -0.0012326668 0.00088838936 0.068142854 -0.0063919951
20755850000 0.040892333 -0.22505692 0.30695295 -0.71870118 -3.277773e-006 0.00013284748 0.070635632 0.0013213529
21005800000 0.031261984 -0.22068289 0.24554354 -0.74301547 -0.00086137792 0.00077949883 0.071707606 0.003045857
21255750000 0.036156587 -0.2266189 0.21146597 -0.76761436 0.00029058495 0.00095631456 0.068894476 0.0023164153
21505700000 0.025367163 -0.22000185 0.16366987 -0.78362775 0.00018594589 0.00063579215 0.063087367 0.00019737316
21755650000 0.034197893 -0.21738036 0.13669351 -0.792669 0.00021961427 0.0010418416 0.063496895 -0.0021022705
22005600000 0.025311192 -0.21410115 0.084713005 -0.80701244 -0.0013300498 0.0014079162 0.063499816 -0.013132812
22255550000 0.023687921 -0.20749463 0.046905726 -0.80921298 -0.00051955454 -0.0002706192 0.073783144 -0.019412745
22505500000 0.020545691 -0.20209369 -0.0083123185 -0.80317926 -0.001934297 0.0015337511 0.077867307 -0.014614156
22755450000 0.013347193 -0.2053327 -0.039082594 -0.80240345 0.00078400527 -0.00060880149 0.083480753 -0.012822571
23005400000 0.013695378 -0.2069988 -0.092689984 -0.80638027 -0.0015399341 0.00087632815 0.083737336 -0.012474887
23255350000 0.012023261 -0.20401973 -0.14866735 -0.8174141 0.00099295692 0.002142763 0.080565237 -0.0065007792
23505300000 0.012034078 -0.20829152 -0.20958565 -0.81646073 0.00070872204 -0.00039340765 0.078576572 -0.010662371
23755250000 0.014439152 -0.1981723 -0.26123551 -0.82324493 0.00019215253 0.00061878859 0.075072974 -0.013103741
24005200000 0.015552918 -0.1959012 -0.30870029 -0.79699707 -0.00033555541 -0.00056326104 0.07526309 -0.024398645
24255150000 0.016029391 -0.18737626 -0.35351366 -0.79592359 0.00016192216 0.0004357638 0.079819985 -0.029138613
24505100000 0.0097876061 -0.18461603 -0.40092397 -0.76855958 -0.0012422288 -0.00013628053 0.085613184 -0.037829217
24755050000 0.0085615776 -0.17863046 -0.44992837 -0.74685109 -0.00028724136 0.0014396933 0.094285257 -0.031327944
25005000000 1.3692202e-005 -0.18351401 -0.47941744 -0.70166475 -0.0011471506 0.00098255381 0.096373945 -0.025460944
25254950000 0.0041022548 -0.17745981 -0.50831693 -0.679919 0.00073968992 0.00084454822 0.097962305 -0.018548012
25504900000 0.0052288994 -0.18260901 -0.55888218 -0.64431494 -0.00079508236 0.00130436 0.091269419 -0.018915059
25754850000 0.009918551 -0.18476377 -0.61525404 -0.62325633 -0.0005872302 3.2618489e-005 0.082248397 -0.022131672
26004800000 0.016170213 -0.17537533 -0.64764029 -0.60428596 -0.0012955224 0.001479776 0.078350917 -0.032720581
26254750000 0.018220985 -0.16941985 -0.70776939 -0.56272215 6.2717649e-005 0.00039611314 0.085206933 -0.040686648
26504700000 0.017333651 -0.15701422 -0.73782933 -0.55250829 -0.00012943383 0.0012193528 0.085484952 -0.052784692
26754650000 0.012454099 -0.15861569 -0.78562039 -0.50252813 -0.0013422661 -0.00090911775 0.10388796 -0.056278426
27004600000 0.0081139626 -0.15480602 -0.80597383 -0.47256872 0.00063376146 0.0012513285 0.10924083 -0.050285552
27254550000 0.0070792176 -0.16074048 -0.84874833 -0.38937521 0.0015520557 0.0013620341 0.11576997 -0.042604119
27504500000 0.0077256113 -0.16264784 -0.84350216 -0.34848678 0.00048979482 0.0011398803 0.11108446 -0.031793341
27754450000 0.016758693 -0.1669413 -0.8609935 -0.25918493 -0.0006090778 0.0005720724 0.096245177 -0.026038829
28004400000 0.020490831 -0.16131428 -0.87353486 -0.24448805 -0.00084609608 -3.7212412e-005 0.084629618 -0.036673889
28254350000 0.026979363 -0.15867861 -0.8917371 -0.17385203 0.00072227884 0.00029537894 0.076477163 -0.050259374
28504300000 0.030834416 -0.14937373 -0.94198555 -0.15066381 0.0018529455 -7.9995218e-005 0.083906487 -0.065899886
28754250000 0.026197284 -0.1436259 -0.95496875 -0.077283517 0.00049796817 6.700724e-005 0.098842308 -0.077060588
29004200000 0.025173075 -0.13812207 -0.96846002 -0.066624023 0.0014746005 0.0006442481 0.11052305 -0.081902318
29254150000 0.018427348 -0.14230461 -0.9830063 0.013039125 0.0011413759 -0.00040694495 0.12430464 -0.074709877
29504100000 0.026983354 -0.14486642 -1.0046473 0.052895658 -0.00036371284 0.00036788365 0.12368162 -0.057300135
29754050000 0.02546476 -0.15117168 -0.98274726 0.16791257 0.0011435705 0.0016157832 0.1208822 -0.047844402
30004000000 0.038135212 -0.15123039 -0.97540867 0.22588556 0.0010191909 -4.9451355e-005 0.10079382 -0.045916319
30253950000 0.04657359 -0.14867809 -0.94909477 0.32766116 0.00042594128 0.00069560268 0.084014617 -0.055232942
30503900000 0.05567345 -0.14303654 -0.94410414 0.38067418 0.0011516473 0.00021553144 0.07315968 -0.075846404
30753850000 0.058931902 -0.1339229 -0.88077396 0.46084318 0.0014147153 -0.00087923807 0.078675911 -0.10035274
31003800000 0.05541645 -0.13316531 -0.89447713 0.49281991 0.00043302786 -0.0011893772 0.098046437 -0.11333715
31253750000 0.045971528 -0.1287116 -0.83762169 0.53677016 0.0010294534 -0.00032943574 0.12067221 -0.11888231
31503700000 0.043067403 -0.13516954 -0.83787191 0.55842733 0.0026137221 -0.00070497178 0.13569336 -0.10681368
31753650000 0.045256719 -0.14007588 -0.76576263 0.59904891 0.00063982949 0.00012464289 0.14669254 -0.087956443
32003600000 0.04826583 -0.14467943 -0.77404439 0.62217444 0.00043068966 0.00012282675 0.13167961 -0.074554443
32253550000 0.060494296 -0.14751911 -0.73967129 0.67533094 0.00029412159 4.4294859e-005 0.1162929 -0.063692942
32503500000 0.069250084 -0.14581694 -0.7341699 0.75840509 0.0010558058 -8.6542132e-005 0.094975598 -0.066041887
32753450000 0.075042441 -0.13850254 -0.62497073 0.80713874 0.0012409709 0.00059559022 0.079666786 -0.085162103
33003400000 0.077779621 -0.13362919 -0.6122213 0.88497978 0.0011059571 -7.761483e-005 0.081981488 -0.10699902
33253350000 0.072564758 -0.12760738 -0.52860916 0.90971452 -0.00085404748 0.00038640734 0.090838991 -0.12359313
33503300000 0.068166167 -0.13470609 -0.52261335 0.97503561 0.00073243905 0.00094889727 0.10615475 -0.12631527
33753250000 0.065398023 -0.13761985 -0.42672297 0.99603862 0.0019281413 0.00093184295 0.11827704 -0.12474846
34003200000 0.070603646 -0.14982501 -0.40141305 1.0410656 0.0014110464 -4.6879501e-005 0.12321687 -0.11564401
34253150000 0.079228528 -0.15128216 -0.28587025 1.0305032 0.0021921559 -0.0014937883 0.11488025 -0.10728978
34503100000 0.087664202 -0.16147982 -0.26051417 1.0594896 0.0014486823 -0.0016699438 0.10283637 -0.10382531
34753050000 0.099179283 -0.15430176 -0.15454596 1.0480475 0.00052413566 -0.0012016289 0.094449155 -0.11499884
35003000000 0.10581672 -0.15001985 -0.10342541 1.1136652 0.00066054572 -0.0010376424 0.093713507 -0.12467421
35252950000 0.10944004 -0.13863079 0.0035485348 1.1065068 0.0012159635 -0.00083662727 0.099032819 -0.13442731
35502900000 0.1042662 -0.13670105 0.074027732 1.1401278 0.00059136155 -0.0011086215 0.10866616 -0.13513859
35752850000 0.10167301 -0.14382146 0.14660241 1.08482 -0.00047413967 -0.00067284389 0.11470582 -0.13151205
36002800000 0.099319607 -0.14799014 0.18635298 1.091381 -0.0015467129 -0.0018371847 0.11493542 -0.12125134
36252750000 0.098717637 -0.15800601 0.24886712 1.0983969 0.00034567766 2.531302e-005 0.10416891 -0.11072236
36502700000 0.10613748 -0.1659961 0.32847768 1.0684549 -5.329154e-005 -4.9221511e-005 0.084324196 -0.11529914
36752650000 0.11288431 -0.1696948 0.41950417 1.035322 -0.00046320964 0.00073006359 0.071615957 -0.12293956
37002600000 0.12099684 -0.16880819 0.46683216 0.98610383 -0.00029761839 0.00053124077 0.067211807 -0.14901666
37252550000 0.12177417 -0.16406131 0.50826591 0.99440461 0.00055882573 -0.0013195697 0.077399835 -0.17035092
37502500000 0.12107188 -0.15836883 0.59619468 1.00309 0.0017925597 -4.9606038e-005 0.099400975 -0.1842977
37752450000 0.11310878 -0.15729444 0.68685359 0.96649247 0.00013216252 -0.0016180854 0.1195523 -0.17302144
38002400000 0.10848159 -0.1622597 0.78281593 0.92250621 -0.00043720775 -0.00014962265 0.12657832 -0.16168511
38252350000 0.10461494 -0.17216557 0.82039553 0.82503194 0.00036778059 -0.0021050151 0.12797913 -0.13297758
38502300000 0.10627962 -0.18030095 0.87248796 0.80050302 0.0002244901 -0.00072089955 0.11259653 -0.12401216
38752250000 0.11743499 -0.19116028 0.93982261 0.71219015 0.0002412607 -0.0016816633 0.085790545 -0.11950838
39002200000 0.12317154 -0.19224669 1.0169895 0.648018 0.0015696731 0.00072377361 0.065638393 -0.13595441
39252150000 0.12812407 -0.19365756 1.0354378 0.50569832 -0.00048385985 -0.0011179757 0.053559341 -0.15796646
39502100000 0.1287601 -0.18388091 1.0366498 0.46770599 6.5637701e-005 7.4362499e-005 0.061535154 -0.1873998
39752050000 0.12175692 -0.18467557 1.052569 0.37025642 -0.0021595815 -0.00057428324 0.072810844 -0.20156221
40002000000 0.11708356 -0.18278027 1.0601935 0.3636004 -0.0003980973 -0.00027687129 0.10070001 -0.202641
40251950000 0.10762665 -0.18647794 1.0994766 0.28251576 0.0019992774 -0.0022363812 0.11093783 -0.18905294
40501900000 0.10852194 -0.19786982 1.146892 0.22817013 -0.0015438112 -0.00087906927 0.11449394 -0.17352244
40751850000 0.11217802 -0.20163888 1.1324883 0.11195998 -0.00093761669 -0.00099144981 0.095266648 -0.15707077
41001800000 0.11921959 -0.20626841 1.1616091 0.085221343 -0.001332606 -0.0016581131 0.073675655 -0.15990302
41251750000 0.12479913 -0.19729288 1.1670065 -0.054109156 -0.00047025504 -0.0021419332 0.053126898 -0.17107177
41501700000 0.13105194 -0.18971199 1.1945554 -0.1060744 -0.00073289045 -0.00052459008 0.050225809 -0.19084524
41751650000 0.12537889 -0.18208653 1.177326 -0.25216404 -0.0035067778 -0.0010107761 0.05109483 -0.21087195
42001600000 0.11949684 -0.17900755 1.1629531 -0.3231039 -0.00095044257 -0.00090343581 0.070298649 -0.2222947
42251550000 0.10601439 -0.17634062 1.052273 -0.40217108 -0.001988969 0.00032069255 0.081556097 -0.2179437
42501500000 0.10306545 -0.1865883 1.0472027 -0.41067901 -0.00023914108 0.00093998114 0.096506663 -0.20248987
42751450000 0.095618524 -0.19648591 0.99562269 -0.4857178 -0.0020075813 -0.0001700611 0.082350083 -0.18962628
43001400000 0.10766032 -0.21074715 0.97644717 -0.54274982 -0.0025271974 -0.0003239162 0.071670532 -0.17727505
43251350000 0.11596783 -0.20676892 0.87309134 -0.56058013 -0.0011246643 0.00038168847 0.046665728 -0.17127852
43501300000 0.12371274 -0.20572422 0.91598791 -0.63741738 -0.0023802198 0.00029584154 0.031907484 -0.18767728
43751250000 0.12141348 -0.19440675 0.85288703 -0.70100164 -0.0014626604 0.0022598722 0.028104581 -0.20483077
44001200000 0.11586796 -0.18655311 0.8196823 -0.82318276 -0.0023282615 -0.00022924341 0.030557904 -0.2172223
