!Agilent Technologies,E8364C,MY43040239,A.09.42.22
!Agilent E8364C: A.09.42.22
!Date: Sunday, September 14, 2025 22:28:20
!Correction: S11(Full 2 Port(1,2)) 
!S21(Full 2 Port(1,2)) 
!S12(Full 2 Port(1,2)) 
!S22(Full 2 Port(1,2)) 
!S2P File: Measurements: S11, S21, S12, S22:
# Hz S  RI   R 50
10000000 0.062560081 0.0040969546 -0.5315364 -0.02656967 -0.0015055315 -0.0047693066 0.30901507 -0.023793556
259950000 0.064474225 0.0042954134 -0.64184421 -0.06552954 0.00082530064 -0.00038199071 0.083766609 -0.18360434
509900000 0.06696856 0.010197345 -0.75656033 0.092034616 -0.00025700193 1.2903251e-005 -0.05774463 0.035520144
759850000 0.070197143 0.01316234 -0.74224824 0.10953186 -0.00029689394 0.00010503326 -0.030479863 0.0098116724
1009800000 0.073055588 0.015967488 -0.73973113 0.15112521 -0.00045408309 -0.00010717199 -0.026024634 0.0073401779
1259750000 0.075980842 0.017881557 -0.73501033 0.19262652 0.00011637667 0.00016772863 -0.02693484 0.0063109421
1509700000 0.078752451 0.018821673 -0.72463828 0.23350354 -0.00010661215 0.0001126421 -0.024967792 0.0073614051
1759650000 0.082705282 0.020824634 -0.70884508 0.27077377 -3.3069577e-005 -0.00021246907 -0.024740141 0.0079525281
2009600000 0.08563859 0.02151666 -0.69295138 0.31132656 0.00018502495 0.00021703815 -0.024836138 0.0094681038
2259550000 0.089310043 0.021688377 -0.67367667 0.35131639 0.00053304707 0.00026434605 -0.023316547 0.010053289
2509500000 0.093491368 0.021285629 -0.65265208 0.38905481 0.00016063306 -0.00017513581 -0.022744223 0.010076093
2759450000 0.095128514 0.022737972 -0.63053256 0.41927055 0.00019150483 0.00019810017 -0.0220959 0.01074106
3009400000 0.098931029 0.023087794 -0.60775834 0.45916796 0.00016340314 0.00041153032 -0.022319354 0.010517674
3259350000 0.10179347 0.023412112 -0.56570566 0.48577571 -1.4548e-005 0.00037980423 -0.022151031 0.011727854
3509300000 0.10660657 0.020843962 -0.56130123 0.53376317 -2.1549167e-005 -9.9954523e-005 -0.024017008 0.011883937
3759250000 0.10990652 0.022073718 -0.49732763 0.54425383 -0.00027410273 9.3255519e-005 -0.023545891 0.018083472
4009200000 0.11310865 0.019830963 -0.47557983 0.58774459 -0.00031844425 0.00029150737 -0.019623099 0.018163517
4259150000 0.11826323 0.016832355 -0.46180925 0.5866816 9.5237929e-006 -0.00025617471 -0.019421186 0.018011387
4509100000 0.1221009 0.018139089 -0.42207932 0.61889213 -0.00011323891 -6.2254549e-005 -0.017071581 0.017126998
4759050000 0.1257471 0.016102839 -0.38823047 0.63589269 0.00027935207 -0.00021379392 -0.016661705 0.018466832
5009000000 0.1316327 0.01314857 -0.36318317 0.6507355 0.00043148929 0.0007024036 -0.015900631 0.018044978
5258950000 0.13276047 0.011421184 -0.30089667 0.68156916 0.00028391764 -0.00031965133 -0.015390961 0.018550159
5508900000 0.13876748 0.0075405831 -0.28726721 0.67731994 0.00021980359 0.00036053633 -0.013988101 0.018521912
5758850000 0.13970268 0.0055094226 -0.22511669 0.70568663 6.8666777e-005 -0.00027360176 -0.012334619 0.020088157
6008800000 0.14546862 0.0023625521 -0.19901352 0.7103489 -7.2186165e-005 0.00013738347 -0.011997719 0.020652173
6258750000 0.14962535 -0.00033906027 -0.16148026 0.71667337 -0.00018965783 8.3477644e-005 -0.011818589 0.021233538
6508700000 0.15470389 -0.0044611609 -0.13848767 0.72797382 7.8059398e-005 -4.3767643e-005 -0.011016798 0.020844955
6758650000 0.15827276 -0.0069600148 -0.082375243 0.72155046 0.00025377554 -0.00019103503 -0.0095240418 0.021232368
7008600000 0.16234633 -0.013046967 -0.058836997 0.73588032 4.8041722e-005 -0.00016482903 -0.0091861626 0.020910067
7258550000 0.16603322 -0.012476528 -0.0081290109 0.72082883 -0.00031423551 3.9051287e-005 -0.0065391669 0.021737356
7508500000 0.16810487 -0.021053743 0.0029323515 0.72959554 3.1640793e-006 0.0001998107 -0.0068719415 0.022157921
7758450000 0.16892968 -0.024933709 0.052501738 0.72290176 -0.00018626476 -0.00047402654 -0.0055051832 0.022208922
8008400000 0.17552759 -0.032814339 0.08161898 0.70747852 -0.00016377759 -0.0001956878 -0.0044335686 0.023277491
8258350000 0.17718942 -0.033117384 0.12765543 0.70886379 0.00011840423 -4.9878141e-005 -0.0035237954 0.022026291
8508300000 0.18299232 -0.044019207 0.14802204 0.69653594 3.7699359e-005 -6.6113084e-006 -0.0027821865 0.024198798
8758250000 0.1840512 -0.045824468 0.1960727 0.69502175 -6.8642941e-005 -0.00021129579 -0.0016512338 0.024085892
9008200000 0.18954962 -0.054193232 0.21889153 0.68081111 -3.3200088e-006 -0.00016849833 -0.0013660066 0.024572542
9258150000 0.18663816 -0.056374323 0.25560763 0.67743182 2.4953226e-005 7.7689729e-005 0.001891306 0.02333037
9508100000 0.19277674 -0.066094287 0.27890217 0.66016752 0.00015235615 -0.00019597508 0.0024398908 0.022409394
9758050000 0.18763515 -0.069647901 0.31565058 0.65305591 -2.874185e-005 0.00019091561 0.0061211204 0.02269732
10008000000 0.19296737 -0.079305306 0.33916497 0.63315755 -0.00022004661 -9.5957912e-005 0.0060045989 0.024275646
10257950000 0.19558637 -0.086166687 0.3732782 0.61523187 -6.7287736e-005 -0.00024985656 0.0071698721 0.023224831
10507900000 0.19236182 -0.094982594 0.40025845 0.60476488 0.0002101585 0.00012256597 0.0075673349 0.024033841
10757850000 0.1963046 -0.099227682 0.43290219 0.57932442 6.733665e-006 0.00018379025 0.0080287 0.024190603
11007800000 0.1933607 -0.10974718 0.46280572 0.56033558 -0.00014311796 -0.00023986159 0.010208927 0.024861008
11257750000 0.19680901 -0.11260812 0.49189264 0.54496628 -0.00011870189 -0.00070987007 0.01071511 0.023116576
11507700000 0.19097127 -0.12316583 0.51960993 0.52528465 0.00048929325 5.7754845e-005 0.012243958 0.022830473
11757650000 0.19497295 -0.12444348 0.54746097 0.51349431 -0.00023519945 0.0001177969 0.013800609 0.022729995
12007600000 0.18918657 -0.13327579 0.57675606 0.48915073 0.00031095621 -1.309921e-005 0.017042169 0.023412229
12257550000 0.18965159 -0.14126495 0.60389793 0.46077392 -0.00027614701 -4.6829689e-005 0.019100528 0.022775656
12507500000 0.18246874 -0.14810002 0.62210321 0.42678386 0.00028782553 -0.00026068362 0.019118076 0.0247867
12757450000 0.18746403 -0.15805846 0.64950168 0.39859569 1.1589917e-005 -0.00091312896 0.021263316 0.022075674
13007400000 0.18038483 -0.16071364 0.66709656 0.3616319 0.00015622638 -0.00057445571 0.020537304 0.024140777
13257350000 0.18241958 -0.16870239 0.69480377 0.32903242 4.4525357e-005 -2.4774197e-005 0.021174107 0.021829136
13507300000 0.17371811 -0.17106132 0.71304172 0.29195756 0.00030042895 -0.00033803086 0.022571698 0.021845091
13757250000 0.17331186 -0.1779431 0.73856986 0.26791367 -3.3397289e-005 0.00023248846 0.025794962 0.01904163
14007200000 0.16267587 -0.18322377 0.74933505 0.22774866 -0.00017695763 -0.00060355803 0.0272537 0.02081825
14257150000 0.16395687 -0.19191204 0.77792382 0.20547749 -0.00014703583 -0.0001539332 0.029600637 0.018137313
14507100000 0.15594944 -0.19387203 0.78373909 0.16168472 -4.7240475e-005 -4.3751836e-005 0.032222338 0.021585112
14757050000 0.15722789 -0.20388009 0.81068921 0.1406237 -0.00021447493 -0.00023882114 0.032290343 0.020131897
15007000000 0.14860462 -0.20600361 0.8114084 0.080095261 -0.00032707822 0.0003168782 0.031056292 0.019410582
15256950000 0.14815015 -0.21246979 0.83069128 0.043184157 -0.00019954405 0.00028192165 0.03285525 0.020133561
15506900000 0.14093025 -0.21528745 0.83779442 -0.018423585 0.00019337794 5.2825741e-005 0.033898156 0.017122129
15756850000 0.13953583 -0.21521211 0.84274811 -0.046492685 -0.0002205319 -0.00062612118 0.037787057 0.014124639
16006800000 0.12922634 -0.22013886 0.84014291 -0.11826529 0.00010926938 -0.00046151548 0.040605187 0.013690311
16256750000 0.12124355 -0.22063011 0.82768065 -0.15226088 -0.00023896924 -0.00022079865 0.044466775 0.014244413
16506700000 0.11452405 -0.23034196 0.8460564 -0.20913379 -0.00037632251 0.00010884822 0.042949237 0.015606208
16756650000 0.11325886 -0.23043543 0.83223861 -0.23224138 -0.00074289623 -0.00096748205 0.047238003 0.016600268
17006600000 0.10639555 -0.23688588 0.8486129 -0.29006767 -0.00061505201 6.1396291e-005 0.044632368 0.017576579
17256550000 0.10166831 -0.23546545 0.80893135 -0.31769016 -0.00067809154 0.00046013258 0.044697713 0.014096102
17506500000 0.096062243 -0.23754671 0.82313764 -0.37539783 -0.00040943685 0.00023860793 0.044685356 0.013849787
17756450000 0.09154243 -0.23355368 0.77654052 -0.41027194 -0.00032729458 0.00023864447 0.046557672 0.0085532675
18006400000 0.08368139 -0.23776287 0.78942692 -0.48374537 -7.4914965e-006 -0.00017299603 0.049068604 0.0048300675
18256350000 0.077511102 -0.23362483 0.73276418 -0.52094311 0.00014565948 5.4324144e-005 0.054608058 0.0045908033
18506300000 0.071339168 -0.23850377 0.73299837 -0.58581114 -0.00067141559 0.00027273077 0.055164982 0.0060543893
18756250000 0.067553259 -0.23763105 0.68542314 -0.61017627 -0.00044601792 1.185908e-005 0.059011269 0.0082484763
19006200000 0.061205599 -0.24350105 0.68787521 -0.6852966 -0.0005715334 -4.0617317e-005 0.056379367 0.008299957
19256150000 0.059422322 -0.24177046 0.63571322 -0.70093566 -0.00065399689 1.2540478e-006 0.055863407 0.0077575063
19506100000 0.056717344 -0.23885816 0.61874926 -0.76215482 -0.00024556895 0.00024028675 0.053987492 0.0048876996
19756050000 0.054377124 -0.23651481 0.55520213 -0.76536047 -0.00082331337 0.00091960921 0.059836082 -0.0012790144
20006000000 0.048101578 -0.23283379 0.51366645 -0.80287766 -0.0026290512 -0.00014655263 0.057203349 -0.0073849414
20255950000 0.038868576 -0.23515899 0.49622488 -0.84579176 -0.0010610158 0.0023028785 0.060161527 -0.0060372949
20505900000 0.034033768 -0.23021789 0.41704023 -0.86319512 -0.00050188397 0.00047878921 0.070074648 -0.005244053
20755850000 0.030138861 -0.23122151 0.40072444 -0.93380952 0.00037478787 0.00049997075 0.071855612 -0.0025005238
21005800000 0.024504635 -0.23020503 0.30827487 -0.93967116 -0.0011358117 0.00088896422 0.074497141 0.0001105873
21255750000 0.025184212 -0.23717925 0.27636445 -0.9919647 -0.00063988211 0.00011340703 0.069215871 -0.0028724684
21505700000 0.019065814 -0.22576791 0.19969204 -0.99291319 -0.00092881278 -0.00026474122 0.062918261 -0.0019440184
21755650000 0.022220924 -0.22851145 0.18279326 -1.0283555 0.00066071155 0.00036060082 0.061620768 -0.0048518544
22005600000 0.016999433 -0.22011048 0.099934846 -1.0183903 0.00019469214 -0.00048419661 0.065945461 -0.014924351
22255550000 0.0105337 -0.2152914 0.056169517 -1.0466648 0.00025587808 0.00089009106 0.068407923 -0.018330518
22505500000 0.0085665658 -0.2080448 -0.019226091 -1.018024 -0.0010033781 -0.0010432521 0.078281216 -0.016947856
22755450000 0.0010954574 -0.20958559 -0.050486155 -1.0443454 0.0009470504 0.0012883494 0.080853105 -0.01430898
23005400000 -0.0019411811 -0.21155584 -0.12159386 -1.055024 -0.0001911224 0.00062955474 0.081101559 -0.014374958
23255350000 -0.0026384785 -0.20854609 -0.19883396 -1.0400447 0.0013689916 0.0013382424 0.082587607 -0.010355061
23505300000 -0.0041410984 -0.21092016 -0.27035439 -1.063141 -0.00087669009 -0.00025369864 0.078654625 -0.011037842
23755250000 0.0032377653 -0.20555614 -0.34819862 -1.0456702 0.00012515453 0.0010877303 0.07873518 -0.017474428
24005200000 0.00011385111 -0.19691059 -0.41408482 -1.0451801 0.00058629713 0.00082046911 0.072581381 -0.022602767
24255150000 0.00060647697 -0.19095735 -0.45489156 -1.009915 -0.0010098567 0.0010176281 0.080423832 -0.035060622
24505100000 -0.0062817708 -0.18569712 -0.52921271 -0.99967813 0.00053008914 0.0011711228 0.084875166 -0.03459977
24755050000 -0.0059365588 -0.18169507 -0.58591557 -0.94274157 0.00030598792 0.00069586356 0.094781086 -0.035466526
25005000000 -0.014154146 -0.18042482 -0.63372999 -0.91328329 -7.1166579e-007 0.0003747225 0.097690888 -0.023656817
25254950000 -0.0095382733 -0.17936154 -0.66627443 -0.85881972 0.0013075283 0.0014457726 0.098961681 -0.021742767
25504900000 -0.0078326324 -0.18040402 -0.73709732 -0.83665293 0.0016248188 0.00093399041 0.090970181 -0.018703019
25754850000 -0.0070306878 -0.18075696 -0.79911256 -0.80493677 -0.00017667635 0.0015793476 0.082041435 -0.022540962
26004800000 0.0020506454 -0.17253318 -0.86181915 -0.76271492 0.00076334609 0.0017392457 0.079775497 -0.034028437
26254750000 0.00025798246 -0.16435398 -0.92163247 -0.72388691 -4.5726545e-005 0.0014971516 0.08436843 -0.045730501
26504700000 0.0013592978 -0.15367223 -0.98063099 -0.69472831 0.00069357734 0.0008483135 0.086873665 -0.052342825
26754650000 -0.0049542161 -0.15202868 -1.0187953 -0.6462611 -0.00088167732 0.00046430633 0.10037034 -0.057413694
27004600000 -0.006890303 -0.14985405 -1.0692991 -0.58759487 0.00011564302 0.0019830833 0.11215395 -0.052947052
27254550000 -0.0088564232 -0.15399437 -1.0981976 -0.49269336 0.0005974404 0.0012971374 0.11063968 -0.044683438
27504500000 -0.0061615515 -0.15488781 -1.115798 -0.42255273 -0.00033917374 0.00028374529 0.1168015 -0.031404126
27754450000 -0.00098538504 -0.15407395 -1.1177331 -0.32784566 0.0019121651 -0.00033719928 0.094644248 -0.026879996
28004400000 0.0067924764 -0.1515249 -1.1506898 -0.28345788 0.00049283938 -1.6837208e-005 0.085358985 -0.036306798
28254350000 0.01038911 -0.144196 -1.1623436 -0.21534821 -0.00047678556 0.00073245505 0.07586325 -0.048901848
28504300000 0.016497759 -0.13760082 -1.2365894 -0.15492806 0.00036540939 0.00092944555 0.083783127 -0.06846685
28754250000 0.012637711 -0.12662791 -1.2376927 -0.079112768 -0.00064660824 0.00028593387 0.096307181 -0.077678569
29004200000 0.011888625 -0.12616603 -1.274349 -0.049802966 -0.00034308046 -0.00017203973 0.10747585 -0.084577739
29254150000 0.0066325483 -0.12498656 -1.274737 0.036311954 0.00054395653 0.00029946488 0.12167998 -0.074113436
29504100000 0.012666705 -0.12909569 -1.3153588 0.11611201 0.0004199112 -0.00039631632 0.12582015 -0.060452275
29754050000 0.015554846 -0.1335628 -1.2696122 0.23907423 0.00090297923 0.0022832991 0.11503738 -0.045509242
30004000000 0.0283961 -0.13231614 -1.2687489 0.33437017 0.0002323131 0.00041046061 0.097120605 -0.044261795
30253950000 0.040118814 -0.13162772 -1.2259194 0.45454478 0.0012424053 0.00037537931 0.083478302 -0.053147335
30503900000 0.047145404 -0.12208118 -1.2204369 0.55303502 0.0027512277 0.00054977706 0.068627916 -0.080468014
30753850000 0.05257313 -0.11222666 -1.137996 0.62420785 0.0009230873 -0.00028942814 0.081804939 -0.097270511
31003800000 0.048957918 -0.10941298 -1.150195 0.70498788 0.0026613213 0.00010274902 0.092274517 -0.11751921
31253750000 0.041156683 -0.10544062 -1.0716569 0.73366618 0.00029971829 -0.0017634099 0.11849549 -0.11879903
31503700000 0.040817853 -0.10982909 -1.0696152 0.78586555 0.00049697165 0.00011866121 0.12977843 -0.10914687
31753650000 0.043526296 -0.1155436 -0.97227019 0.81269103 0.0015418141 0.00054812693 0.14590314 -0.08987163
32003600000 0.048219077 -0.11833851 -0.98175454 0.86403543 0.0011058727 0.00069940736 0.12984456 -0.074884541
32253550000 0.061162848 -0.12260775 -0.93062389 0.9208855 0.0011426506 -0.00049778185 0.11343677 -0.06268394
32503500000 0.072234072 -0.12103542 -0.9173854 1.0500685 0.00057745422 -0.0013730284 0.094895877 -0.068970785
32753450000 0.080289021 -0.11267301 -0.77679312 1.0929105 0.00057738886 0.00023925817 0.077263154 -0.084181868
33003400000 0.082770884 -0.10695072 -0.73766422 1.2241982 -1.0447831e-005 -0.0014611509 0.079278588 -0.11051903
33253350000 0.082204424 -0.10182555 -0.62842143 1.2303635 0.00064672332 0.0011143327 0.088024482 -0.11997556
33503300000 0.076465085 -0.10768935 -0.61824626 1.3387591 0.001590483 0.00011234332 0.10456394 -0.13286041
33753250000 0.078201495 -0.1143886 -0.48365116 1.3258262 -0.00027304256 -5.789052e-005 0.11673164 -0.12497592
34003200000 0.083016135 -0.12321243 -0.4392508 1.4211737 0.0014229269 -0.00073411595 0.12014205 -0.11629704
34253150000 0.095110968 -0.13161159 -0.29409388 1.3696942 0.0026414264 -0.0013187503 0.11646598 -0.10472561
34503100000 0.1039152 -0.13655314 -0.24268673 1.4308549 0.0010679779 -0.0012444481 0.1017794 -0.10703612
34753050000 0.11692709 -0.13255669 -0.12044398 1.3801739 0.0015966601 3.1430831e-005 0.095547304 -0.11395783
35003000000 0.12848437 -0.12562869 -0.027671473 1.4866639 0.0012899893 -0.0015602241 0.09130951 -0.12658983
35252950000 0.13076329 -0.119482 0.1036872 1.4507436 0.00024728186 -0.00045532049 0.097940221 -0.13090742
35502900000 0.13303217 -0.11950227 0.23072495 1.4982518 -0.00031068164 0.00019439645 0.10353762 -0.1376916
35752850000 0.12489016 -0.12521079 0.28727934 1.3986468 0.00051783572 -0.00081991206 0.11622088 -0.13064484
36002800000 0.12632692 -0.13522781 0.36366022 1.4059913 -0.00010178892 -0.0022433049 0.11436187 -0.12080088
36252750000 0.13008417 -0.14578731 0.45412701 1.4131368 0.0019218135 -0.00099009334 0.10169752 -0.11225081
36502700000 0.13281749 -0.15530477 0.54816878 1.3531772 0.00050081767 -0.0008450803 0.08725483 -0.11207583
36752650000 0.14379799 -0.16296573 0.67859924 1.30673 -0.00053649786 -0.0013783894 0.068630442 -0.12464842
37002600000 0.15056655 -0.16276534 0.72191751 1.2096736 0.00025538512 -0.0017072354 0.066100292 -0.14865951
37252550000 0.15332437 -0.16310148 0.80370748 1.2343035 7.994847e-005 -0.0017076962 0.075598255 -0.17028756
37502500000 0.15128389 -0.15731303 0.89390254 1.2136643 -1.0289069e-005 -0.0012349233 0.099064037 -0.18589137
37752450000 0.14547984 -0.16013999 1.0273049 1.1596736 -0.0003164371 -0.0021796336 0.12027131 -0.17689189
38002400000 0.13886531 -0.16569309 1.1281168 1.0749778 0.0013578406 -0.0019992548 0.12833345 -0.15604629
38252350000 0.13631806 -0.17713156 1.1832955 0.95293456 -0.00027136633 -0.0012976644 0.12799726 -0.1383841
38502300000 0.13687499 -0.18900001 1.2387255 0.88918465 -0.0007883631 -0.0017025477 0.10698105 -0.12491816
38752250000 0.14557426 -0.19996814 1.3026088 0.78385156 -0.0010841 -0.00280705 0.090346061 -0.12056018
39002200000 0.15049745 -0.20560059 1.3814852 0.67292076 -0.0016176036 -0.0024679191 0.06547419 -0.13417719
39252150000 0.15240888 -0.20492336 1.3924601 0.49626389 -0.00067955576 1.201328e-005 0.055869553 -0.16334476
39502100000 0.1507372 -0.20390323 1.3826021 0.43350315 0.00032792491 -0.00025038459 0.057173602 -0.18580639
39752050000 0.14632131 -0.20062418 1.3876423 0.32519808 -0.0015758161 0.001084206 0.074408598 -0.20611078
40002000000 0.13816376 -0.2027469 1.3865389 0.30633479 0.0001696533 -0.0010453294 0.096880555 -0.20396365
40251950000 0.13271946 -0.20925583 1.4362375 0.20203573 0.00037469546 -0.0010343762 0.11020841 -0.19157426
40501900000 0.12499922 -0.21458386 1.4599806 0.11357687 0.00099005119 -0.0011492298 0.1107406 -0.17297578
40751850000 0.12794034 -0.22425587 1.4320459 -0.02176585 0.00013370741 -0.0013315803 0.09702874 -0.15779386
41001800000 0.13296841 -0.22788884 1.4500098 -0.078573287 -0.00017232785 0.00046331875 0.069808632 -0.16015014
41251750000 0.13929085 -0.22131597 1.4452814 -0.21957833 -0.00097740453 -0.0017853365 0.056374207 -0.17096947
41501700000 0.14121585 -0.21093298 1.4584415 -0.31925637 -0.0021994959 -0.0024569945 0.043290026 -0.1878769
41751650000 0.13431552 -0.20534171 1.4117044 -0.47085214 -0.0015535395 0.0016255379 0.050153837 -0.21277966
42001600000 0.12741636 -0.20042767 1.3682332 -0.57967752 -0.0014899677 8.5191597e-005 0.065384798 -0.22125313
42251550000 0.11402606 -0.20197298 1.2421063 -0.62882769 -0.00068696146 -0.00022318454 0.080398366 -0.21879663
42501500000 0.10824615 -0.211046 1.2149174 -0.66489118 -0.00093559799 0.00014638086 0.087823786 -0.20335418
42751450000 0.10099979 -0.22076809 1.1511425 -0.73432785 -0.00045983054 0.00059790746 0.083903812 -0.18758586
43001400000 0.11035853 -0.23619412 1.1142328 -0.80170161 -0.0020808352 -0.0011210332 0.065949462 -0.17855403
43251350000 0.11723327 -0.23216243 0.99466264 -0.80372792 9.59514e-005 0.0016247216 0.045325316 -0.17650907
43501300000 0.12193711 -0.22671112 1.0219276 -0.90677541 -0.0040558977 -1.7685361e-005 0.025267877 -0.18507975
43751250000 0.12386668 -0.2181382 0.94536638 -0.96316195 -0.0039724894 0.0010654549 0.029757265 -0.2087426
44001200000 0.11310192 -0.20868854 0.87031186 -1.1124216 -0.00037560548 0.0011438857 0.029018249 -0.21795905
44251150000 0.10774699 -0.19950725 0.83324492 -1.1287237 0.00032813635 0.00013850027 0.039629687 -0.22833782
