!Agilent Technologies,E8364C,MY43040239,A.09.42.22
!Agilent E8364C: A.09.42.22
!Date: Sunday, September 14, 2025 22:23:11
!Correction: S11(Full 2 Port(1,2)) 
!S21(Full 2 Port(1,2)) 
!S12(Full 2 Port(1,2)) 
!S22(Full 2 Port(1,2)) 
!S2P File: Measurements: S11, S21, S12, S22:
# Hz S  RI   R 50
10000000 0.055625752 -0.008716912 -0.0046493956 -0.0017392909 0.009314701 -0.0025135486 0.99595207 -0.011058363
259950000 0.0594543 0.0022021879 -0.00058317714 0.00039666824 -0.0011398937 -0.00071866252 1.0001044 -0.037386455
509900000 0.061776981 0.00037788908 -0.00036277858 0.00016258792 -0.00050872553 0.00021534292 0.99550825 -0.070839964
759850000 0.063982867 -0.0011266227 0.0002581958 2.0974638e-005 -0.00023476056 -0.00031808272 0.99245501 -0.10282561
1009800000 0.064520404 -0.0025847724 -0.00028249528 -6.8322173e-005 -0.00012306929 -0.00014800653 0.98673844 -0.13490173
1259750000 0.065511078 -0.0046945717 -0.00012076934 0.00019531067 -0.00016544711 -3.0622909e-005 0.97719169 -0.16806188
1509700000 0.06608279 -0.0070093679 -2.5664773e-005 -8.3619161e-005 8.5167587e-005 -0.00040128667 0.97188717 -0.2023968
1759650000 0.065991327 -0.0092447139 -8.4939609e-005 -0.0006152289 -0.00036794305 0.0001555279 0.95751536 -0.2320504
2009600000 0.06661348 -0.011590892 0.00036196067 -9.7835502e-005 0.00031425903 0.00057027623 0.94686043 -0.25838938
2259550000 0.067089111 -0.01246449 -8.4712527e-005 -0.00019009059 4.6029476e-005 -1.3243935e-005 0.93456739 -0.29261142
2509500000 0.067840144 -0.015412023 0.00032841519 -0.00012886268 0.00058664661 -4.1747007e-005 0.92524433 -0.32055667
2759450000 0.066920161 -0.017079737 2.6202601e-005 -3.1556847e-006 6.7483394e-005 0.00010168592 0.90500605 -0.35139841
3009400000 0.067283168 -0.018801553 0.00030615163 -0.0001102061 0.00047039744 -0.00045363267 0.8965115 -0.38143596
3259350000 0.067586802 -0.020702196 -0.00014028029 -0.00013915911 -4.7864123e-005 -0.00037281774 0.86872315 -0.40184194
3509300000 0.067077599 -0.021708626 -0.00068592443 -0.00070367049 8.3621744e-005 -6.6475892e-005 0.86999023 -0.42757073
3759250000 0.068150178 -0.026878687 -0.00091219979 7.4589138e-005 0.00015714916 0.00044506567 0.83221149 -0.45530432
4009200000 0.068456553 -0.024816837 -0.00036185887 6.1758568e-005 0.00031110342 -0.00053934206 0.81864655 -0.49995449
4259150000 0.066051081 -0.028793626 -9.9586294e-005 0.00024079537 -0.00030866038 0.00028583576 0.80692261 -0.51044619
4509100000 0.068194412 -0.029719295 0.00019547436 -0.00024125441 -0.00061698869 -0.00074814016 0.7817952 -0.5300231
4759050000 0.06769377 -0.032140061 -7.0096838e-005 2.6314729e-007 0.00015844085 0.00027472543 0.75486648 -0.54959339
5009000000 0.066404149 -0.033272296 -5.1315827e-005 7.7437515e-005 -0.00022566327 -0.00013083899 0.73445433 -0.56829083
5258950000 0.067442439 -0.035293709 -0.00034486331 0.00013111655 8.6188429e-006 0.00011744381 0.71243036 -0.58432293
5508900000 0.065564781 -0.038660351 -9.5055555e-005 0.00065814221 -3.0277613e-005 0.00024096684 0.69303697 -0.60287583
5758850000 0.067040831 -0.039633654 0.00048335938 0.00035854944 5.2162071e-005 -8.8639201e-005 0.67437685 -0.61547899
6008800000 0.064907387 -0.042344768 -4.5218123e-005 0.00014205679 -0.00026930249 0.00028209819 0.64368367 -0.63234353
6258750000 0.064539164 -0.044085581 0.00017091531 -4.9649094e-005 -0.00011618497 -0.00044316481 0.62112784 -0.65349323
6508700000 0.065906063 -0.044292413 5.7379359e-005 -0.00023508885 2.8812909e-005 -0.00026764278 0.59663272 -0.66757858
6758650000 0.065625787 -0.047762174 -2.2821258e-005 -8.0356433e-005 0.00013681487 0.0001460035 0.57504922 -0.68970305
7008600000 0.065297522 -0.049176984 -0.00024884639 -0.00038304398 -0.00018169972 -4.1000661e-005 0.54487556 -0.6897468
7258550000 0.0647256 -0.050053645 -5.3628055e-006 -0.0002008648 -7.4220705e-005 9.4674542e-005 0.5201546 -0.69625133
7508500000 0.063161984 -0.050740555 -0.00033382612 -0.00027841658 -2.0733003e-005 6.1765882e-006 0.49183667 -0.70636809
7758450000 0.062369779 -0.053738642 -0.00041812277 -0.0005464736 -0.00026574032 0.00019490653 0.48100519 -0.71425468
8008400000 0.060317539 -0.055984747 0.00068190135 5.7529731e-005 -2.9196228e-005 4.8235503e-005 0.45719722 -0.71016192
8258350000 0.060732726 -0.059196398 0.00015791104 -2.5875346e-005 -0.00012169997 0.00048739099 0.43624139 -0.73674816
8508300000 0.060954504 -0.060380485 -0.00019850855 3.1242143e-005 0.00021291095 -9.4711279e-005 0.41565955 -0.72200686
8758250000 0.06148687 -0.06346751 -0.00033923786 -8.1154503e-005 0.00022772724 0.00018715051 0.38273874 -0.74995345
9008200000 0.0606612 -0.061991684 -2.0943868e-005 -0.00029750346 -1.3739061e-005 1.0100861e-005 0.35808846 -0.73761207
9258150000 0.059045944 -0.06424395 0.00022644711 1.0680757e-005 -5.4729604e-005 6.0907165e-005 0.3301166 -0.7588402
9508100000 0.056795683 -0.065700628 6.3584266e-005 0.00036700003 0.00011255504 -0.00019773719 0.31028506 -0.73946911
9758050000 0.057146199 -0.0664123 0.00019599478 5.6131201e-005 9.0755406e-005 -9.7908829e-005 0.29025945 -0.76055062
10008000000 0.055444226 -0.068647094 -8.5066007e-005 -0.00030957203 -4.9642946e-005 -0.00025669701 0.26916248 -0.7501536
10257950000 0.053735428 -0.072526373 -8.3886211e-005 -0.00069048774 0.00033408418 0.00026820434 0.23857811 -0.74973398
10507900000 0.054754592 -0.071767755 0.00050000451 5.560759e-005 -7.6874887e-005 -8.7037639e-005 0.23894005 -0.74650592
10757850000 0.052330468 -0.075125575 -0.00014525039 -6.3686217e-005 7.2866816e-005 -0.00031388929 0.1951167 -0.74625283
11007800000 0.053352665 -0.073712222 0.00023048146 0.00053800701 -0.00013295838 -0.00050364813 0.20351768 -0.74461752
11257750000 0.052744832 -0.076082438 -3.1022239e-005 5.2156451e-005 7.2893868e-005 -0.00030457755 0.15313236 -0.74943072
11507700000 0.051291551 -0.074193053 0.00039327092 6.9155241e-005 -0.00033699939 -6.2898616e-005 0.15612744 -0.74203342
11757650000 0.049917158 -0.075495265 3.1292177e-005 0.0001112902 0.00019451867 -0.00035956281 0.10967808 -0.73613721
12007600000 0.048451751 -0.075938657 0.00020715669 -0.00021849244 -7.9309437e-005 2.3568033e-005 0.11058952 -0.73277009
12257550000 0.046532497 -0.078107148 0.00035568906 -0.00066320837 -8.4180618e-005 -0.00049090857 0.083602801 -0.71914017
12507500000 0.045519568 -0.08038231 -0.00010103958 3.0929954e-005 -2.8981814e-005 -0.00067187013 0.075769044 -0.73316598
12757450000 0.048573133 -0.080689907 0.00011244089 4.1710526e-005 1.6262835e-005 -3.9133931e-005 0.047644001 -0.70830798
13007400000 0.047383629 -0.081689596 -0.00073802366 -0.00021030054 0.00021035595 0.00011789487 0.050483465 -0.71775413
13257350000 0.046488438 -0.080158547 -8.9320609e-005 -0.00032892503 -0.00044376246 -0.00039345169 0.013659794 -0.70212126
13507300000 0.046210811 -0.07897234 -0.00038303706 0.00041150843 -0.00017442745 -0.00022749409 0.019775875 -0.7090531
13757250000 0.04316524 -0.079628654 5.2155876e-005 -0.00018435567 0.00012491879 -0.00020408697 -0.021383053 -0.69058019
14007200000 0.042211473 -0.080863535 -0.00041825834 0.00010602613 -0.00018275414 -0.00028619237 -0.011380996 -0.69656426
14257150000 0.040433604 -0.082378678 -0.00013896871 5.9990207e-006 1.8951052e-005 8.3876272e-005 -0.050456621 -0.67407048
14507100000 0.042851448 -0.083232731 -0.00016527726 -0.00057895709 -0.00019787 1.3684836e-005 -0.042209629 -0.68066442
14757050000 0.041546661 -0.084984586 -0.00090609328 0.00094696914 -0.00047109849 0.00016469894 -0.075083107 -0.65937179
15007000000 0.045837305 -0.087475784 -0.00084807712 0.00089600246 -0.00077467068 0.00031148756 -0.073807649 -0.66601115
15256950000 0.044154085 -0.085577443 -0.00023874521 -5.0037648e-005 -5.823157e-005 0.00049878057 -0.096383356 -0.6502915
15506900000 0.045075819 -0.082415603 -8.7640059e-005 -8.9051311e-005 -0.00039530511 6.3444561e-005 -0.096124694 -0.63994837
15756850000 0.042633031 -0.082645968 -0.00096647028 0.00010746319 6.3395615e-005 0.00015228287 -0.13056712 -0.63754171
16006800000 0.041133013 -0.082372792 -0.00044298454 0.00055209559 -1.7393146e-005 0.00070483505 -0.12704749 -0.63089615
16256750000 0.038302053 -0.084726661 -0.00054935704 0.00018615653 8.4169784e-005 0.00019675918 -0.14940046 -0.62763917
16506700000 0.038953468 -0.085153423 0.0004303749 0.00058821129 -0.00051825412 -0.00017096786 -0.13821989 -0.60893589
16756650000 0.04135108 -0.08711151 -0.00050414342 1.840567e-005 0.00046173952 -9.8888719e-005 -0.17326033 -0.60142279
17006600000 0.040853888 -0.088242069 -0.000101138 -7.3798859e-005 0.00010624708 0.00064447551 -0.16440451 -0.58552468
17256550000 0.043043416 -0.087884776 -0.00035041553 0.00050187844 -0.00043624899 -0.00015398463 -0.19693147 -0.58779627
17506500000 0.042867944 -0.085483648 9.334059e-005 0.00018294126 -8.6684289e-005 -0.00023458996 -0.18445748 -0.56455189
17756450000 0.044818308 -0.08365804 -0.00012490661 -0.00045030913 -0.00017608359 0.00034205933 -0.21603583 -0.57239324
18006400000 0.041942019 -0.082931735 0.00050553423 -0.00029488912 1.2923665e-005 0.00027548266 -0.20406342 -0.55673718
18256350000 0.042043332 -0.082974367 0.00043120049 0.00011866796 0.0001956225 0.00035650583 -0.22984819 -0.55545014
18506300000 0.040663913 -0.08377447 -0.00021674181 -3.0021905e-005 -1.7711836e-005 6.1900741e-005 -0.21306711 -0.53731823
18756250000 0.04161647 -0.085487165 -7.0114867e-005 0.00027716605 0.00023712839 0.0005106632 -0.24369226 -0.53326827
19006200000 0.044370651 -0.088893235 -0.00049088272 0.00080578797 -0.00014670267 0.00023897909 -0.23274969 -0.5153628
19256150000 0.045210499 -0.090143122 -0.00049668341 0.00047321734 -0.00060044252 0.00040820427 -0.26275423 -0.51193637
19506100000 0.052308761 -0.087305926 0.00068574568 0.00026646288 -4.5790675e-005 -0.00026901692 -0.25397253 -0.49769008
19756050000 0.050892949 -0.086268216 -0.00099020067 0.00041356109 -0.00036857824 0.00076194806 -0.27844104 -0.49723309
20006000000 0.049746331 -0.082748763 0.00083415478 0.00013351211 -0.0024986495 0.00058355741 -0.27694082 -0.49055475
20255950000 0.05063669 -0.086254261 0.00029453874 -8.3451014e-005 0.0018241635 0.0010586159 -0.26793191 -0.47392094
20505900000 0.046441868 -0.085156836 1.8082785e-005 6.4482723e-005 0.00083452521 5.0445327e-005 -0.28882369 -0.47579244
20755850000 0.05119529 -0.088188417 -0.00086697226 0.0025062356 0.00051095407 0.0014518285 -0.27478057 -0.4477511
21005800000 0.048210215 -0.093498811 -0.00044041855 -0.00088156079 -3.2024177e-006 0.00099511538 -0.30196562 -0.45113367
21255750000 0.05273544 -0.096523948 0.0011250802 0.0012352446 -0.00030487173 -0.0010405898 -0.28657395 -0.42374831
21505700000 0.052697059 -0.09490937 0.0022707307 0.00094785582 0.0020038686 0.0024370332 -0.31964916 -0.4261618
21755650000 0.058410808 -0.092588052 0.00072953117 -0.00080494868 0.0015363334 -0.00035282277 -0.30869249 -0.41372973
22005600000 0.059482947 -0.095632412 0.00094768516 -0.0013685044 -0.00058379234 -9.0484806e-005 -0.3262352 -0.41858727
22255550000 0.057251669 -0.090714172 0.00090739125 -0.0010554418 -0.00044694959 -0.00030516557 -0.31127295 -0.407599
22505500000 0.058321092 -0.091176078 -0.00018339579 -0.0003085972 -0.00026940799 -0.00082258141 -0.32998195 -0.40058222
22755450000 0.055762485 -0.090955861 0.00065608707 0.0014526743 -0.00051873835 -0.00086789939 -0.3089245 -0.38132146
23005400000 0.055486649 -0.098054647 0.0010126864 0.00048912963 0.00037397884 -0.00052884186 -0.31538534 -0.37820515
23255350000 0.055156257 -0.10246459 -7.4603769e-005 -0.0025099693 0.00033766442 -0.0014065957 -0.33879891 -0.35581374
23505300000 0.060038161 -0.10550019 -0.0015260793 -0.00070198928 -0.0003592094 0.0011257546 -0.32968473 -0.35697323
23755250000 0.064715162 -0.10201566 -0.0023797809 0.0020514263 0.0006294417 -0.00060500362 -0.35201529 -0.33939728
24005200000 0.068315767 -0.10289891 0.00047805073 -0.00091867929 -0.00012019925 -0.00017774037 -0.34016049 -0.35124716
24255150000 0.068255462 -0.09803614 -0.00091579196 -0.00016021186 -0.00085301808 0.001529158 -0.35157821 -0.33410665
24505100000 0.06720034 -0.099278636 -0.00060732418 -0.00036234999 0.0013721786 0.00027472581 -0.34097013 -0.34000105
24755050000 0.065654881 -0.098025888 0.00075758394 0.00038960695 0.00039460827 0.00098284287 -0.34075016 -0.31380472
25005000000 0.059764598 -0.10447696 0.00075954007 -0.00026860504 -0.00020066425 0.0011675571 -0.33020875 -0.31089404
25254950000 0.061893493 -0.10380432 0.00032654352 0.00072777184 -0.00049608346 4.0988871e-005 -0.34394944 -0.28330597
25504900000 0.064076304 -0.11561581 -0.0021446354 0.0011922339 0.00073586201 -0.0010796044 -0.34360921 -0.28817037
25754850000 0.070188031 -0.11645701 -0.0018771462 -0.00027544511 -5.5065993e-005 8.7562192e-005 -0.3535094 -0.27533478
26004800000 0.074490562 -0.1111111 0.0012137251 0.0015612484 0.00039942507 0.0003169699 -0.37451297 -0.27093366
26254750000 0.079750448 -0.10935979 -0.0010664541 -0.00011854577 0.00013124668 0.0001000502 -0.3572357 -0.2802321
26504700000 0.075489469 -0.10078005 0.0011100826 0.00085588259 0.00088410691 -0.00097848685 -0.37517297 -0.26809973
26754650000 0.07151445 -0.10294922 0.00048388704 -0.0012755557 -7.5293174e-005 0.00043789975 -0.34725183 -0.27266943
27004600000 0.067251951 -0.10635728 0.00022643743 0.00016970169 0.001417756 -0.00098718982 -0.35104868 -0.25426415
27254550000 0.064641692 -0.11203399 0.0030330496 0.00095313461 0.00095356809 -2.7300821e-005 -0.33957684 -0.23933692
27504500000 0.064918771 -0.11930147 0.00060723489 -4.1671356e-006 2.990173e-005 0.0013854868 -0.35445753 -0.21274707
27754450000 0.070831917 -0.12163749 -0.0007446091 1.7232895e-005 -0.00082455651 -0.00092210266 -0.36047542 -0.20504768
28004400000 0.074875519 -0.12328525 1.1277031e-005 -0.00062870694 -0.00044616699 -0.00090448919 -0.38109681 -0.19551198
28254350000 0.081684515 -0.12138825 0.00024138654 0.00043652 0.00090076559 0.00011317126 -0.38324535 -0.20886549
28504300000 0.081387125 -0.11707589 0.00084043154 -0.0015913575 0.0015205792 -0.00045919267 -0.38327757 -0.2038665
28754250000 0.080650911 -0.11395694 0.0010564919 -0.00030589389 0.00051017926 -0.0011283712 -0.36239961 -0.21596302
29004200000 0.072708875 -0.10910883 0.00059528771 -0.0018990518 0.00013772018 0.00034278724 -0.3635909 -0.20457001
29254150000 0.068134613 -0.11997941 -0.00069645233 -0.0014521109 0.00039483182 0.0010318889 -0.33789575 -0.1940465
29504100000 0.071218379 -0.11835545 0.00019467245 -3.3404249e-005 -0.00062622025 0.001734809 -0.34197947 -0.15773815
29754050000 0.067541055 -0.13319255 0.00059005793 0.001034183 0.00079875934 0.00072861637 -0.34156856 -0.14603369
30004000000 0.079085425 -0.1316963 -0.00048806556 -0.00069063279 0.00057646778 -0.00024004721 -0.36107904 -0.1311271
30253950000 0.084829964 -0.13237685 0.00014896413 -0.001013067 -0.00032035128 0.0010978631 -0.37957096 -0.12613088
30503900000 0.098765284 -0.12545858 0.00067427341 0.0013927339 0.00072107435 9.7185162e-005 -0.38871667 -0.14162365
30753850000 0.092042565 -0.11980957 0.0011339952 0.0012782236 0.0015516711 -0.00081435678 -0.38077164 -0.15183285
31003800000 0.091375023 -0.11676838 -8.0180558e-005 0.0010182995 0.00018096453 -0.00095506106 -0.36387759 -0.1614802
31253750000 0.075385064 -0.11461937 0.0013233405 -0.00032702059 -5.988753e-005 -0.00014022349 -0.34251457 -0.15600301
31503700000 0.075495906 -0.12102937 0.00052568439 9.9545221e-005 0.0017255464 3.4951154e-005 -0.32245916 -0.13679869
31753650000 0.073040865 -0.12518936 -2.7188846e-005 -7.3637595e-005 0.00095688255 -0.00048461041 -0.31845114 -0.10880292
32003600000 0.075346991 -0.13344033 0.00068958185 -0.00046835703 0.00067234493 -0.00062417379 -0.32934636 -0.087540276
32253550000 0.086038314 -0.13839804 0.00069519808 0.0010516921 0.00048045893 -0.00078409998 -0.34281293 -0.066109352
32503500000 0.090088867 -0.13527367 0.00060032652 0.0017655588 0.0010318899 -0.00012354262 -0.35539031 -0.06906154
32753450000 0.094086878 -0.13099328 0.00022951663 -0.00034254894 0.00027442811 -0.00084464578 -0.37270999 -0.064672381
33003400000 0.095196694 -0.12056521 0.0012507671 0.0011598682 0.0018344128 -0.00053295644 -0.36858219 -0.088173389
33253350000 0.086575992 -0.11920834 0.0017899405 -0.00068745768 0.0004299799 -0.0014118932 -0.36296996 -0.085799597
33503300000 0.083690427 -0.11933463 -0.00016200932 0.0011666508 0.00099064223 0.00078313274 -0.3399635 -0.09000358
33753250000 0.076055266 -0.12872227 -0.0011290441 -0.00077928923 0.0011370301 -0.00095998985 -0.33116636 -0.070897244
34003200000 0.081171311 -0.13634472 0.0015747723 -0.0012308594 -0.00031996248 0.000374328 -0.32235679 -0.062311698
34253150000 0.084580861 -0.14026871 -0.00065704691 -0.0013986417 0.00041687643 -0.0019274455 -0.32506862 -0.036062609
34503100000 0.098510355 -0.15048531 0.0014914788 0.00014053252 0.00014475852 -0.00025825511 -0.33053333 -0.035455644
34753050000 0.10272118 -0.13813612 0.0005753272 -0.00057124323 -0.0010369818 -0.0017126795 -0.33610433 -0.028270094
35003000000 0.11159533 -0.13741927 -0.00028656609 0.0016032693 0.0010672524 -0.00090067979 -0.33498639 -0.037653368
35252950000 0.10935677 -0.12110706 -0.00078807201 5.2483661e-005 -0.0013160792 -0.00056570803 -0.32182407 -0.032835018
35502900000 0.10237899 -0.12619823 -0.0029837773 -0.00012287441 -0.00016026762 -0.00054942258 -0.31061515 -0.033430252
35752850000 0.098565385 -0.12351897 0.00016183988 -0.0021067993 -0.00011888154 0.0011737708 -0.29539877 -0.011276176
36002800000 0.09366072 -0.13161093 -0.0019947791 0.00044604662 0.00037691649 -0.00034688809 -0.29324412 0.0006430936
36252750000 0.090775996 -0.14034832 0.00053581147 0.00059704675 -5.7088688e-005 0.0008146427 -0.30193675 0.013080027
36502700000 0.099324442 -0.1430589 0.0012239255 0.00034017101 0.0004061044 -0.00015501275 -0.31780705 0.024654169
36752650000 0.10320514 -0.14689668 -0.00048088873 0.00055246003 -0.00037990697 -0.00070987531 -0.32552776 0.010406507
37002600000 0.11138938 -0.14109918 4.5722809e-006 -0.0011890295 0.00039298483 0.0011380727 -0.32796043 0.00016215141
37252550000 0.11214865 -0.1353714 0.0011806294 -0.0017480927 -0.00096786674 -0.0010749479 -0.31156382 -0.023395272
37502500000 0.11088134 -0.12697847 -0.00025584677 0.0016801661 0.00078982755 -0.0012213148 -0.28548577 -0.022594847
37752450000 0.10418424 -0.12547012 0.0026346694 -0.00068082369 0.0012000569 -0.00015442475 -0.26425985 -0.014063534
38002400000 0.094824821 -0.12648062 -2.0027981e-005 -0.00098419178 0.00052225753 -0.00093030068 -0.24983789 0.019505795
38252350000 0.095447838 -0.13661651 -0.0001920902 0.00041568812 -0.00097589142 -0.0018575395 -0.24619702 0.03419479
38502300000 0.093934648 -0.14615612 0.0012144522 -0.0014003486 0.00039322089 -0.00021281862 -0.26194936 0.056620978
38752250000 0.10926706 -0.14901704 -4.1878626e-005 0.00083208107 -0.00038187334 -0.00076731131 -0.27520961 0.068407014
39002200000 0.10998845 -0.1497352 -0.0021560998 0.00085744914 -0.00059510325 0.001399946 -0.30201975 0.061797317
39252150000 0.12206284 -0.14650707 -8.6709209e-005 2.93524e-006 0.0011977989 0.0010490862 -0.29816017 0.043249071
39502100000 0.12172531 -0.13490699 0.00058877276 0.00036893022 -0.0008929621 0.00179033 -0.29655117 0.019552946
39752050000 0.11919548 -0.13659905 0.00018360524 0.00038905311 -0.00021234612 -0.00064528803 -0.26548827 0.015860312
40002000000 0.11225452 -0.13213101 0.0013610581 -0.00031141995 0.00014084188 0.00025334186 -0.24354383 0.021121642
40251950000 0.10492373 -0.13730361 0.00057921238 0.00061687204 0.0017036152 0.00029085638 -0.22581598 0.035301346
40501900000 0.11225817 -0.14161253 0.00020256753 6.4297987e-005 0.00064961071 -0.0017430406 -0.22158588 0.069216676
40751850000 0.11087351 -0.15257481 0.0016397974 -0.00057395943 0.00016415041 4.8497473e-005 -0.22584054 0.085765682
41001800000 0.12799689 -0.15192685 -0.00035312155 -0.00022175473 0.00058912107 -0.00028562031 -0.25037745 0.093457662
41251750000 0.13129926 -0.14358538 0.00048197381 0.00010607355 6.6205335e-005 0.00077490427 -0.25752702 0.081216119
41501700000 0.14130597 -0.13310431 -0.00054922688 0.00018734818 -0.00099280465 0.00050721946 -0.26205021 0.074019641
